2023-09-11 20:11:06,907 DEBUG logging:102 Current transaction state - IDLE
2023-09-11 20:11:06,907 DEBUG logging:102 Running transaction 1
2023-09-11 20:11:06,907 DEBUG logging:102 SEND: 0x0 0x10 0x4 0x12 0x0 0x2 0x4 0x4b 0x0 0x0 0x0 0x52 0xa2
2023-09-11 20:11:06,907 DEBUG logging:102 New Transaction state "SENDING"
2023-09-11 20:11:06,908 DEBUG logging:102 Changing transaction state from "SENDING" to "WAITING FOR REPLY"
2023-09-11 20:11:13,045 DEBUG logging:102 Transaction failed. (Modbus Error: [Invalid Message] No response received, expected at least 4 bytes (0 received)) 
2023-09-11 20:11:13,045 DEBUG logging:102 Processing: 
2023-09-11 20:11:13,045 DEBUG logging:102 Getting transaction 0
2023-09-11 20:11:13,045 DEBUG logging:102 Changing transaction state from "PROCESSING REPLY" to "TRANSACTION_COMPLETE"
2023-09-11 20:11:13,063 DEBUG logging:102 Current transaction state - TRANSACTION_COMPLETE
2023-09-11 20:11:13,063 DEBUG logging:102 Running transaction 2
2023-09-11 20:11:13,063 DEBUG logging:102 SEND: 0x0 0x10 0x4 0xc 0x0 0x2 0x4 0xf3 0x80 0xff 0xff 0xf6 0xda
2023-09-11 20:11:13,063 DEBUG logging:102 Changing state to IDLE - Last Frame End - None Current Time stamp - 1694455873.063262
2023-09-11 20:11:13,065 DEBUG logging:102 New Transaction state "SENDING"
2023-09-11 20:11:13,065 DEBUG logging:102 Changing transaction state from "SENDING" to "WAITING FOR REPLY"
2023-09-11 20:11:19,069 DEBUG logging:102 No response received, Expected 8 bytes Received 0 bytes !!!!
2023-09-11 20:11:19,069 DEBUG logging:102 Changing transaction state from "WAITING FOR REPLY" to "PROCESSING REPLY"
2023-09-11 20:11:19,069 DEBUG logging:102 RECV: 
2023-09-11 20:11:19,069 DEBUG logging:102 Processing: 
2023-09-11 20:11:19,069 DEBUG logging:102 Getting transaction 0
2023-09-11 20:11:19,177 DEBUG logging:102 Changing transaction state from "PROCESSING REPLY" to "TRANSACTION_COMPLETE"
2023-09-11 20:11:31,631 DEBUG logging:102 Current transaction state - IDLE
2023-09-11 20:11:31,632 DEBUG logging:102 Running transaction 1
2023-09-11 20:11:31,632 DEBUG logging:102 SEND: 0x0 0x10 0x4 0x12 0x0 0x2 0x4 0x19 0x0 0x0 0x0 0x42 0x1a
2023-09-11 20:11:31,632 DEBUG logging:102 New Transaction state "SENDING"
2023-09-11 20:11:31,632 DEBUG logging:102 Changing transaction state from "SENDING" to "WAITING FOR REPLY"
2023-09-11 20:11:37,750 DEBUG logging:102 Transaction failed. (Modbus Error: [Invalid Message] No response received, expected at least 4 bytes (0 received)) 
2023-09-11 20:11:37,750 DEBUG logging:102 Processing: 
2023-09-11 20:11:37,750 DEBUG logging:102 Getting transaction 0
2023-09-11 20:11:37,750 DEBUG logging:102 Changing transaction state from "PROCESSING REPLY" to "TRANSACTION_COMPLETE"
2023-09-11 20:11:56,854 DEBUG logging:102 Current transaction state - IDLE
2023-09-11 20:11:56,854 DEBUG logging:102 Running transaction 1
2023-09-11 20:11:56,854 DEBUG logging:102 SEND: 0x0 0x10 0x4 0x12 0x0 0x2 0x4 0x4b 0x0 0x0 0x0 0x52 0xa2
2023-09-11 20:11:56,854 DEBUG logging:102 New Transaction state "SENDING"
2023-09-11 20:11:56,854 DEBUG logging:102 Changing transaction state from "SENDING" to "WAITING FOR REPLY"
2023-09-11 20:12:02,972 DEBUG logging:102 Transaction failed. (Modbus Error: [Invalid Message] No response received, expected at least 4 bytes (0 received)) 
2023-09-11 20:12:02,972 DEBUG logging:102 Processing: 
2023-09-11 20:12:02,972 DEBUG logging:102 Getting transaction 0
2023-09-11 20:12:02,972 DEBUG logging:102 Changing transaction state from "PROCESSING REPLY" to "TRANSACTION_COMPLETE"
2023-09-11 20:16:00,274 DEBUG logging:102 Current transaction state - IDLE
2023-09-11 20:16:00,276 DEBUG logging:102 Running transaction 1
2023-09-11 20:16:00,276 DEBUG logging:102 SEND: 0x0 0x10 0x4 0xc 0x0 0x2 0x4 0x19 0x0 0x0 0x0 0xc2 0x9a
2023-09-11 20:16:00,276 DEBUG logging:102 New Transaction state "SENDING"
2023-09-11 20:16:00,276 DEBUG logging:102 Changing transaction state from "SENDING" to "WAITING FOR REPLY"
2023-09-11 20:16:06,389 DEBUG logging:102 Transaction failed. (Modbus Error: [Invalid Message] No response received, expected at least 4 bytes (0 received)) 
2023-09-11 20:16:06,389 DEBUG logging:102 Processing: 
2023-09-11 20:16:06,389 DEBUG logging:102 Getting transaction 0
2023-09-11 20:16:06,389 DEBUG logging:102 Changing transaction state from "PROCESSING REPLY" to "TRANSACTION_COMPLETE"
2023-09-11 20:20:09,210 DEBUG logging:102 Current transaction state - IDLE
2023-09-11 20:20:09,211 DEBUG logging:102 Running transaction 1
2023-09-11 20:20:09,211 DEBUG logging:102 SEND: 0x0 0x10 0x4 0x12 0x0 0x2 0x4 0x19 0x0 0x0 0x0 0x42 0x1a
2023-09-11 20:20:09,211 DEBUG logging:102 New Transaction state "SENDING"
2023-09-11 20:20:09,211 DEBUG logging:102 Changing transaction state from "SENDING" to "WAITING FOR REPLY"
2023-09-11 20:20:15,325 DEBUG logging:102 Transaction failed. (Modbus Error: [Invalid Message] No response received, expected at least 4 bytes (0 received)) 
2023-09-11 20:20:15,325 DEBUG logging:102 Processing: 
2023-09-11 20:20:15,325 DEBUG logging:102 Getting transaction 0
2023-09-11 20:20:15,325 DEBUG logging:102 Changing transaction state from "PROCESSING REPLY" to "TRANSACTION_COMPLETE"
2023-09-11 20:20:49,134 DEBUG logging:102 Current transaction state - IDLE
2023-09-11 20:20:49,135 DEBUG logging:102 Running transaction 1
2023-09-11 20:20:49,135 DEBUG logging:102 SEND: 0x0 0x10 0x4 0xc 0x0 0x2 0x4 0xe7 0x0 0xff 0xff 0xf2 0xc2
2023-09-11 20:20:49,135 DEBUG logging:102 New Transaction state "SENDING"
2023-09-11 20:20:49,135 DEBUG logging:102 Changing transaction state from "SENDING" to "WAITING FOR REPLY"
2023-09-11 20:20:55,255 DEBUG logging:102 Transaction failed. (Modbus Error: [Invalid Message] No response received, expected at least 4 bytes (0 received)) 
2023-09-11 20:20:55,255 DEBUG logging:102 Processing: 
2023-09-11 20:20:55,255 DEBUG logging:102 Getting transaction 0
2023-09-11 20:20:55,255 DEBUG logging:102 Changing transaction state from "PROCESSING REPLY" to "TRANSACTION_COMPLETE"
2023-09-11 20:20:55,258 DEBUG logging:102 Current transaction state - TRANSACTION_COMPLETE
2023-09-11 20:20:55,258 DEBUG logging:102 Running transaction 2
2023-09-11 20:20:55,259 DEBUG logging:102 SEND: 0x0 0x10 0x4 0x12 0x0 0x2 0x4 0x19 0x0 0x0 0x0 0x42 0x1a
2023-09-11 20:20:55,259 DEBUG logging:102 Changing state to IDLE - Last Frame End - None Current Time stamp - 1694456455.259145
2023-09-11 20:20:55,261 DEBUG logging:102 New Transaction state "SENDING"
2023-09-11 20:20:55,261 DEBUG logging:102 Changing transaction state from "SENDING" to "WAITING FOR REPLY"
2023-09-11 20:21:01,265 DEBUG logging:102 No response received, Expected 8 bytes Received 0 bytes !!!!
2023-09-11 20:21:01,265 DEBUG logging:102 Changing transaction state from "WAITING FOR REPLY" to "PROCESSING REPLY"
2023-09-11 20:21:01,265 DEBUG logging:102 RECV: 
2023-09-11 20:21:01,265 DEBUG logging:102 Processing: 
2023-09-11 20:21:01,265 DEBUG logging:102 Getting transaction 0
2023-09-11 20:21:01,373 DEBUG logging:102 Changing transaction state from "PROCESSING REPLY" to "TRANSACTION_COMPLETE"
2023-09-11 20:21:26,401 DEBUG logging:102 Current transaction state - IDLE
2023-09-11 20:21:26,401 DEBUG logging:102 Running transaction 1
2023-09-11 20:21:26,402 DEBUG logging:102 SEND: 0x0 0x10 0x4 0xc 0x0 0x2 0x4 0xe7 0x0 0xff 0xff 0xf2 0xc2
2023-09-11 20:21:26,402 DEBUG logging:102 New Transaction state "SENDING"
2023-09-11 20:21:26,402 DEBUG logging:102 Changing transaction state from "SENDING" to "WAITING FOR REPLY"
2023-09-11 20:21:32,537 DEBUG logging:102 Transaction failed. (Modbus Error: [Invalid Message] No response received, expected at least 4 bytes (0 received)) 
2023-09-11 20:21:32,537 DEBUG logging:102 Processing: 
2023-09-11 20:21:32,537 DEBUG logging:102 Getting transaction 0
2023-09-11 20:21:32,537 DEBUG logging:102 Changing transaction state from "PROCESSING REPLY" to "TRANSACTION_COMPLETE"
2023-09-11 20:22:19,045 DEBUG logging:102 Current transaction state - IDLE
2023-09-11 20:22:19,045 DEBUG logging:102 Running transaction 1
2023-09-11 20:22:19,046 DEBUG logging:102 SEND: 0x0 0x10 0x4 0x12 0x0 0x2 0x4 0x19 0x0 0x0 0x0 0x42 0x1a
2023-09-11 20:22:19,046 DEBUG logging:102 New Transaction state "SENDING"
2023-09-11 20:22:19,046 DEBUG logging:102 Changing transaction state from "SENDING" to "WAITING FOR REPLY"
2023-09-11 20:22:25,162 DEBUG logging:102 Transaction failed. (Modbus Error: [Invalid Message] No response received, expected at least 4 bytes (0 received)) 
2023-09-11 20:22:25,162 DEBUG logging:102 Processing: 
2023-09-11 20:22:25,162 DEBUG logging:102 Getting transaction 0
2023-09-11 20:22:25,162 DEBUG logging:102 Changing transaction state from "PROCESSING REPLY" to "TRANSACTION_COMPLETE"
2023-09-11 20:23:14,212 DEBUG logging:102 Current transaction state - IDLE
2023-09-11 20:23:14,212 DEBUG logging:102 Running transaction 1
2023-09-11 20:23:14,212 DEBUG logging:102 SEND: 0x0 0x10 0x4 0x12 0x0 0x2 0x4 0x32 0x0 0x0 0x0 0x4b 0xfe
2023-09-11 20:23:14,212 DEBUG logging:102 New Transaction state "SENDING"
2023-09-11 20:23:14,212 DEBUG logging:102 Changing transaction state from "SENDING" to "WAITING FOR REPLY"
2023-09-11 20:23:20,328 DEBUG logging:102 Transaction failed. (Modbus Error: [Invalid Message] No response received, expected at least 4 bytes (0 received)) 
2023-09-11 20:23:20,328 DEBUG logging:102 Processing: 
2023-09-11 20:23:20,328 DEBUG logging:102 Getting transaction 0
2023-09-11 20:23:20,328 DEBUG logging:102 Changing transaction state from "PROCESSING REPLY" to "TRANSACTION_COMPLETE"
2023-09-11 20:23:39,853 DEBUG logging:102 Current transaction state - IDLE
2023-09-11 20:23:39,853 DEBUG logging:102 Running transaction 1
2023-09-11 20:23:39,853 DEBUG logging:102 SEND: 0x0 0x10 0x4 0x12 0x0 0x2 0x4 0x2e 0xe0 0x0 0x0 0x4d 0x98
2023-09-11 20:23:39,853 DEBUG logging:102 New Transaction state "SENDING"
2023-09-11 20:23:39,853 DEBUG logging:102 Changing transaction state from "SENDING" to "WAITING FOR REPLY"
2023-09-11 20:23:45,994 DEBUG logging:102 Transaction failed. (Modbus Error: [Invalid Message] No response received, expected at least 4 bytes (0 received)) 
2023-09-11 20:23:45,994 DEBUG logging:102 Processing: 
2023-09-11 20:23:45,994 DEBUG logging:102 Getting transaction 0
2023-09-11 20:23:45,994 DEBUG logging:102 Changing transaction state from "PROCESSING REPLY" to "TRANSACTION_COMPLETE"
2023-09-11 20:24:04,356 DEBUG logging:102 Current transaction state - IDLE
2023-09-11 20:24:04,357 DEBUG logging:102 Running transaction 1
2023-09-11 20:24:04,357 DEBUG logging:102 SEND: 0x0 0x10 0x4 0x12 0x0 0x2 0x4 0x27 0x10 0x0 0x0 0x4e 0x37
2023-09-11 20:24:04,357 DEBUG logging:102 New Transaction state "SENDING"
2023-09-11 20:24:04,357 DEBUG logging:102 Changing transaction state from "SENDING" to "WAITING FOR REPLY"
2023-09-11 20:24:10,493 DEBUG logging:102 Transaction failed. (Modbus Error: [Invalid Message] No response received, expected at least 4 bytes (0 received)) 
2023-09-11 20:24:10,493 DEBUG logging:102 Processing: 
2023-09-11 20:24:10,493 DEBUG logging:102 Getting transaction 0
2023-09-11 20:24:10,494 DEBUG logging:102 Changing transaction state from "PROCESSING REPLY" to "TRANSACTION_COMPLETE"
2023-09-11 20:24:11,888 DEBUG logging:102 Current transaction state - IDLE
2023-09-11 20:24:11,888 DEBUG logging:102 Running transaction 1
2023-09-11 20:24:11,888 DEBUG logging:102 SEND: 0x0 0x10 0x4 0x12 0x0 0x2 0x4 0x27 0x10 0x0 0x0 0x4e 0x37
2023-09-11 20:24:11,888 DEBUG logging:102 New Transaction state "SENDING"
2023-09-11 20:24:11,888 DEBUG logging:102 Changing transaction state from "SENDING" to "WAITING FOR REPLY"
2023-09-11 20:24:18,023 DEBUG logging:102 Transaction failed. (Modbus Error: [Invalid Message] No response received, expected at least 4 bytes (0 received)) 
2023-09-11 20:24:18,023 DEBUG logging:102 Processing: 
2023-09-11 20:24:18,023 DEBUG logging:102 Getting transaction 0
2023-09-11 20:24:18,023 DEBUG logging:102 Changing transaction state from "PROCESSING REPLY" to "TRANSACTION_COMPLETE"
2023-09-11 20:24:43,138 DEBUG logging:102 Current transaction state - IDLE
2023-09-11 20:24:43,139 DEBUG logging:102 Running transaction 1
2023-09-11 20:24:43,139 DEBUG logging:102 SEND: 0x0 0x10 0x4 0x12 0x0 0x2 0x4 0x1f 0x40 0x0 0x0 0x43 0x46
2023-09-11 20:24:43,139 DEBUG logging:102 New Transaction state "SENDING"
2023-09-11 20:24:43,139 DEBUG logging:102 Changing transaction state from "SENDING" to "WAITING FOR REPLY"
2023-09-11 20:24:49,271 DEBUG logging:102 Transaction failed. (Modbus Error: [Invalid Message] No response received, expected at least 4 bytes (0 received)) 
2023-09-11 20:24:49,271 DEBUG logging:102 Processing: 
2023-09-11 20:24:49,271 DEBUG logging:102 Getting transaction 0
2023-09-11 20:24:49,271 DEBUG logging:102 Changing transaction state from "PROCESSING REPLY" to "TRANSACTION_COMPLETE"
2023-09-11 20:25:12,535 DEBUG logging:102 Current transaction state - IDLE
2023-09-11 20:25:12,535 DEBUG logging:102 Running transaction 1
2023-09-11 20:25:12,535 DEBUG logging:102 SEND: 0x0 0x10 0x4 0x12 0x0 0x2 0x4 0x21 0x34 0x0 0x0 0xe 0xb4
2023-09-11 20:25:12,535 DEBUG logging:102 New Transaction state "SENDING"
2023-09-11 20:25:12,536 DEBUG logging:102 Changing transaction state from "SENDING" to "WAITING FOR REPLY"
2023-09-11 20:25:18,670 DEBUG logging:102 Transaction failed. (Modbus Error: [Invalid Message] No response received, expected at least 4 bytes (0 received)) 
2023-09-11 20:25:18,670 DEBUG logging:102 Processing: 
2023-09-11 20:25:18,670 DEBUG logging:102 Getting transaction 0
2023-09-11 20:25:18,670 DEBUG logging:102 Changing transaction state from "PROCESSING REPLY" to "TRANSACTION_COMPLETE"
2023-09-11 20:25:46,954 DEBUG logging:102 Current transaction state - IDLE
2023-09-11 20:25:46,954 DEBUG logging:102 Running transaction 1
2023-09-11 20:25:46,954 DEBUG logging:102 SEND: 0x0 0x10 0x4 0x12 0x0 0x2 0x4 0x20 0x6c 0x0 0x0 0x8e 0x9b
2023-09-11 20:25:46,954 DEBUG logging:102 New Transaction state "SENDING"
2023-09-11 20:25:46,954 DEBUG logging:102 Changing transaction state from "SENDING" to "WAITING FOR REPLY"
2023-09-11 20:25:53,087 DEBUG logging:102 Transaction failed. (Modbus Error: [Invalid Message] No response received, expected at least 4 bytes (0 received)) 
2023-09-11 20:25:53,087 DEBUG logging:102 Processing: 
2023-09-11 20:25:53,087 DEBUG logging:102 Getting transaction 0
2023-09-11 20:25:53,087 DEBUG logging:102 Changing transaction state from "PROCESSING REPLY" to "TRANSACTION_COMPLETE"
2023-09-11 20:26:01,188 DEBUG logging:102 Current transaction state - IDLE
2023-09-11 20:26:01,189 DEBUG logging:102 Running transaction 1
2023-09-11 20:26:01,189 DEBUG logging:102 SEND: 0x0 0x10 0x4 0x12 0x0 0x2 0x4 0x1f 0xa4 0x0 0x0 0x3 0x71
2023-09-11 20:26:01,189 DEBUG logging:102 New Transaction state "SENDING"
2023-09-11 20:26:01,189 DEBUG logging:102 Changing transaction state from "SENDING" to "WAITING FOR REPLY"
2023-09-11 20:26:07,303 DEBUG logging:102 Transaction failed. (Modbus Error: [Invalid Message] No response received, expected at least 4 bytes (0 received)) 
2023-09-11 20:26:07,303 DEBUG logging:102 Processing: 
2023-09-11 20:26:07,303 DEBUG logging:102 Getting transaction 0
2023-09-11 20:26:07,303 DEBUG logging:102 Changing transaction state from "PROCESSING REPLY" to "TRANSACTION_COMPLETE"
2023-09-11 20:26:17,456 DEBUG logging:102 Current transaction state - IDLE
2023-09-11 20:26:17,456 DEBUG logging:102 Running transaction 1
2023-09-11 20:26:17,456 DEBUG logging:102 SEND: 0x0 0x10 0x4 0x12 0x0 0x2 0x4 0x1f 0x72 0x0 0x0 0xe2 0x89
2023-09-11 20:26:17,456 DEBUG logging:102 New Transaction state "SENDING"
2023-09-11 20:26:17,456 DEBUG logging:102 Changing transaction state from "SENDING" to "WAITING FOR REPLY"
2023-09-11 20:26:23,590 DEBUG logging:102 Transaction failed. (Modbus Error: [Invalid Message] No response received, expected at least 4 bytes (0 received)) 
2023-09-11 20:26:23,590 DEBUG logging:102 Processing: 
2023-09-11 20:26:23,590 DEBUG logging:102 Getting transaction 0
2023-09-11 20:26:23,590 DEBUG logging:102 Changing transaction state from "PROCESSING REPLY" to "TRANSACTION_COMPLETE"
2023-09-11 20:26:33,352 DEBUG logging:102 Current transaction state - IDLE
2023-09-11 20:26:33,352 DEBUG logging:102 Running transaction 1
2023-09-11 20:26:33,352 DEBUG logging:102 SEND: 0x0 0x10 0x4 0x12 0x0 0x2 0x4 0x1f 0x40 0x0 0x0 0x43 0x46
2023-09-11 20:26:33,352 DEBUG logging:102 New Transaction state "SENDING"
2023-09-11 20:26:33,352 DEBUG logging:102 Changing transaction state from "SENDING" to "WAITING FOR REPLY"
2023-09-11 20:26:39,462 DEBUG logging:102 Transaction failed. (Modbus Error: [Invalid Message] No response received, expected at least 4 bytes (0 received)) 
2023-09-11 20:26:39,462 DEBUG logging:102 Processing: 
2023-09-11 20:26:39,462 DEBUG logging:102 Getting transaction 0
2023-09-11 20:26:39,462 DEBUG logging:102 Changing transaction state from "PROCESSING REPLY" to "TRANSACTION_COMPLETE"
2023-09-11 20:27:11,468 DEBUG logging:102 Current transaction state - IDLE
2023-09-11 20:27:11,468 DEBUG logging:102 Running transaction 1
2023-09-11 20:27:11,468 DEBUG logging:102 SEND: 0x0 0x10 0x4 0x12 0x0 0x2 0x4 0x1e 0xdc 0x0 0x0 0x82 0x94
2023-09-11 20:27:11,468 DEBUG logging:102 New Transaction state "SENDING"
2023-09-11 20:27:11,468 DEBUG logging:102 Changing transaction state from "SENDING" to "WAITING FOR REPLY"
2023-09-11 20:27:17,605 DEBUG logging:102 Transaction failed. (Modbus Error: [Invalid Message] No response received, expected at least 4 bytes (0 received)) 
2023-09-11 20:27:17,605 DEBUG logging:102 Processing: 
2023-09-11 20:27:17,605 DEBUG logging:102 Getting transaction 0
2023-09-11 20:27:17,605 DEBUG logging:102 Changing transaction state from "PROCESSING REPLY" to "TRANSACTION_COMPLETE"
2023-09-11 20:27:29,765 DEBUG logging:102 Current transaction state - IDLE
2023-09-11 20:27:29,765 DEBUG logging:102 Running transaction 1
2023-09-11 20:27:29,765 DEBUG logging:102 SEND: 0x0 0x10 0x4 0x12 0x0 0x2 0x4 0x1e 0x78 0x0 0x0 0xc3 0x77
2023-09-11 20:27:29,765 DEBUG logging:102 New Transaction state "SENDING"
2023-09-11 20:27:29,766 DEBUG logging:102 Changing transaction state from "SENDING" to "WAITING FOR REPLY"
2023-09-11 20:27:35,916 DEBUG logging:102 Transaction failed. (Modbus Error: [Invalid Message] No response received, expected at least 4 bytes (0 received)) 
2023-09-11 20:27:35,916 DEBUG logging:102 Processing: 
2023-09-11 20:27:35,916 DEBUG logging:102 Getting transaction 0
2023-09-11 20:27:35,916 DEBUG logging:102 Changing transaction state from "PROCESSING REPLY" to "TRANSACTION_COMPLETE"
2023-09-11 20:27:48,796 DEBUG logging:102 Current transaction state - IDLE
2023-09-11 20:27:48,796 DEBUG logging:102 Running transaction 1
2023-09-11 20:27:48,796 DEBUG logging:102 SEND: 0x0 0x10 0x4 0x12 0x0 0x2 0x4 0x1c 0xe8 0x0 0x0 0xc2 0xe2
2023-09-11 20:27:48,796 DEBUG logging:102 New Transaction state "SENDING"
2023-09-11 20:27:48,796 DEBUG logging:102 Changing transaction state from "SENDING" to "WAITING FOR REPLY"
2023-09-11 20:27:54,910 DEBUG logging:102 Transaction failed. (Modbus Error: [Invalid Message] No response received, expected at least 4 bytes (0 received)) 
2023-09-11 20:27:54,910 DEBUG logging:102 Processing: 
2023-09-11 20:27:54,910 DEBUG logging:102 Getting transaction 0
2023-09-11 20:27:54,910 DEBUG logging:102 Changing transaction state from "PROCESSING REPLY" to "TRANSACTION_COMPLETE"
2023-09-11 20:28:13,329 DEBUG logging:102 Current transaction state - IDLE
2023-09-11 20:28:13,329 DEBUG logging:102 Running transaction 1
2023-09-11 20:28:13,329 DEBUG logging:102 SEND: 0x0 0x10 0x4 0x12 0x0 0x2 0x4 0x1d 0x4c 0x0 0x0 0x82 0xfd
2023-09-11 20:28:13,329 DEBUG logging:102 New Transaction state "SENDING"
2023-09-11 20:28:13,329 DEBUG logging:102 Changing transaction state from "SENDING" to "WAITING FOR REPLY"
2023-09-11 20:28:19,455 DEBUG logging:102 Transaction failed. (Modbus Error: [Invalid Message] No response received, expected at least 4 bytes (0 received)) 
2023-09-11 20:28:19,455 DEBUG logging:102 Processing: 
2023-09-11 20:28:19,455 DEBUG logging:102 Getting transaction 0
2023-09-11 20:28:19,455 DEBUG logging:102 Changing transaction state from "PROCESSING REPLY" to "TRANSACTION_COMPLETE"
2023-09-11 20:29:02,177 DEBUG logging:102 Current transaction state - IDLE
2023-09-11 20:29:02,177 DEBUG logging:102 Running transaction 1
2023-09-11 20:29:02,177 DEBUG logging:102 SEND: 0x0 0x10 0x4 0x12 0x0 0x2 0x4 0x1c 0xe8 0x0 0x0 0xc2 0xe2
2023-09-11 20:29:02,177 DEBUG logging:102 New Transaction state "SENDING"
2023-09-11 20:29:02,177 DEBUG logging:102 Changing transaction state from "SENDING" to "WAITING FOR REPLY"
2023-09-11 20:29:08,293 DEBUG logging:102 Transaction failed. (Modbus Error: [Invalid Message] No response received, expected at least 4 bytes (0 received)) 
2023-09-11 20:29:08,293 DEBUG logging:102 Processing: 
2023-09-11 20:29:08,293 DEBUG logging:102 Getting transaction 0
2023-09-11 20:29:08,293 DEBUG logging:102 Changing transaction state from "PROCESSING REPLY" to "TRANSACTION_COMPLETE"
2023-09-11 20:29:15,866 DEBUG logging:102 Current transaction state - IDLE
2023-09-11 20:29:15,866 DEBUG logging:102 Running transaction 1
2023-09-11 20:29:15,866 DEBUG logging:102 SEND: 0x0 0x10 0x4 0x12 0x0 0x2 0x4 0x1d 0x1a 0x0 0x0 0x62 0xed
2023-09-11 20:29:15,866 DEBUG logging:102 New Transaction state "SENDING"
2023-09-11 20:29:15,866 DEBUG logging:102 Changing transaction state from "SENDING" to "WAITING FOR REPLY"
2023-09-11 20:29:21,979 DEBUG logging:102 Transaction failed. (Modbus Error: [Invalid Message] No response received, expected at least 4 bytes (0 received)) 
2023-09-11 20:29:21,979 DEBUG logging:102 Processing: 
2023-09-11 20:29:21,979 DEBUG logging:102 Getting transaction 0
2023-09-11 20:29:21,979 DEBUG logging:102 Changing transaction state from "PROCESSING REPLY" to "TRANSACTION_COMPLETE"
2023-09-11 20:29:33,311 DEBUG logging:102 Current transaction state - IDLE
2023-09-11 20:29:33,311 DEBUG logging:102 Running transaction 1
2023-09-11 20:29:33,311 DEBUG logging:102 SEND: 0x0 0x10 0x4 0x12 0x0 0x2 0x4 0x1d 0x1f 0x0 0x0 0x72 0xec
2023-09-11 20:29:33,311 DEBUG logging:102 New Transaction state "SENDING"
2023-09-11 20:29:33,312 DEBUG logging:102 Changing transaction state from "SENDING" to "WAITING FOR REPLY"
2023-09-11 20:29:39,429 DEBUG logging:102 Transaction failed. (Modbus Error: [Invalid Message] No response received, expected at least 4 bytes (0 received)) 
2023-09-11 20:29:39,429 DEBUG logging:102 Processing: 
2023-09-11 20:29:39,429 DEBUG logging:102 Getting transaction 0
2023-09-11 20:29:39,429 DEBUG logging:102 Changing transaction state from "PROCESSING REPLY" to "TRANSACTION_COMPLETE"
2023-09-11 20:35:01,641 DEBUG logging:102 Current transaction state - IDLE
2023-09-11 20:35:01,641 DEBUG logging:102 Running transaction 1
2023-09-11 20:35:01,641 DEBUG logging:102 SEND: 0x0 0x10 0x4 0xc 0x0 0x2 0x4 0xe7 0x0 0xff 0xff 0xf2 0xc2
2023-09-11 20:35:01,641 DEBUG logging:102 New Transaction state "SENDING"
2023-09-11 20:35:01,641 DEBUG logging:102 Changing transaction state from "SENDING" to "WAITING FOR REPLY"
2023-09-11 20:35:07,760 DEBUG logging:102 Transaction failed. (Modbus Error: [Invalid Message] No response received, expected at least 4 bytes (0 received)) 
2023-09-11 20:35:07,760 DEBUG logging:102 Processing: 
2023-09-11 20:35:07,760 DEBUG logging:102 Getting transaction 0
2023-09-11 20:35:07,760 DEBUG logging:102 Changing transaction state from "PROCESSING REPLY" to "TRANSACTION_COMPLETE"
2023-09-11 20:37:52,049 DEBUG logging:102 Current transaction state - IDLE
2023-09-11 20:37:52,049 DEBUG logging:102 Running transaction 1
2023-09-11 20:37:52,049 DEBUG logging:102 SEND: 0x0 0x10 0x4 0x12 0x0 0x2 0x4 0x1d 0x1f 0x0 0x0 0x72 0xec
2023-09-11 20:37:52,049 DEBUG logging:102 New Transaction state "SENDING"
2023-09-11 20:37:52,050 DEBUG logging:102 Changing transaction state from "SENDING" to "WAITING FOR REPLY"
2023-09-11 20:37:58,165 DEBUG logging:102 Transaction failed. (Modbus Error: [Invalid Message] No response received, expected at least 4 bytes (0 received)) 
2023-09-11 20:37:58,165 DEBUG logging:102 Processing: 
2023-09-11 20:37:58,165 DEBUG logging:102 Getting transaction 0
2023-09-11 20:37:58,165 DEBUG logging:102 Changing transaction state from "PROCESSING REPLY" to "TRANSACTION_COMPLETE"
2023-09-11 20:38:30,080 DEBUG logging:102 Current transaction state - IDLE
2023-09-11 20:38:30,080 DEBUG logging:102 Running transaction 1
2023-09-11 20:38:30,080 DEBUG logging:102 SEND: 0x0 0x10 0x4 0x12 0x0 0x2 0x4 0x3a 0x3e 0x0 0x0 0x28 0x52
2023-09-11 20:38:30,080 DEBUG logging:102 New Transaction state "SENDING"
2023-09-11 20:38:30,080 DEBUG logging:102 Changing transaction state from "SENDING" to "WAITING FOR REPLY"
2023-09-11 20:38:36,219 DEBUG logging:102 Transaction failed. (Modbus Error: [Invalid Message] No response received, expected at least 4 bytes (0 received)) 
2023-09-11 20:38:36,219 DEBUG logging:102 Processing: 
2023-09-11 20:38:36,219 DEBUG logging:102 Getting transaction 0
2023-09-11 20:38:36,219 DEBUG logging:102 Changing transaction state from "PROCESSING REPLY" to "TRANSACTION_COMPLETE"
2023-09-11 20:39:26,120 DEBUG logging:102 Current transaction state - IDLE
2023-09-11 20:39:26,120 DEBUG logging:102 Running transaction 1
2023-09-11 20:39:26,121 DEBUG logging:102 SEND: 0x0 0x10 0x4 0x12 0x0 0x2 0x4 0x1d 0x1f 0x0 0x0 0x72 0xec
2023-09-11 20:39:26,121 DEBUG logging:102 New Transaction state "SENDING"
2023-09-11 20:39:26,121 DEBUG logging:102 Changing transaction state from "SENDING" to "WAITING FOR REPLY"
2023-09-11 20:39:32,247 DEBUG logging:102 Transaction failed. (Modbus Error: [Invalid Message] No response received, expected at least 4 bytes (0 received)) 
2023-09-11 20:39:32,247 DEBUG logging:102 Processing: 
2023-09-11 20:39:32,247 DEBUG logging:102 Getting transaction 0
2023-09-11 20:39:32,247 DEBUG logging:102 Changing transaction state from "PROCESSING REPLY" to "TRANSACTION_COMPLETE"
2023-09-11 20:39:45,967 DEBUG logging:102 Current transaction state - IDLE
2023-09-11 20:39:45,968 DEBUG logging:102 Running transaction 1
2023-09-11 20:39:45,968 DEBUG logging:102 SEND: 0x0 0x10 0x4 0x12 0x0 0x2 0x4 0x4 0x1f 0x0 0x0 0x75 0xb0
2023-09-11 20:39:45,968 DEBUG logging:102 New Transaction state "SENDING"
2023-09-11 20:39:45,968 DEBUG logging:102 Changing transaction state from "SENDING" to "WAITING FOR REPLY"
2023-09-11 20:39:52,096 DEBUG logging:102 Transaction failed. (Modbus Error: [Invalid Message] No response received, expected at least 4 bytes (0 received)) 
2023-09-11 20:39:52,096 DEBUG logging:102 Processing: 
2023-09-11 20:39:52,096 DEBUG logging:102 Getting transaction 0
2023-09-11 20:39:52,096 DEBUG logging:102 Changing transaction state from "PROCESSING REPLY" to "TRANSACTION_COMPLETE"
2023-09-11 20:41:46,898 DEBUG logging:102 Current transaction state - IDLE
2023-09-11 20:41:46,898 DEBUG logging:102 Running transaction 1
2023-09-11 20:41:46,898 DEBUG logging:102 SEND: 0x0 0x10 0x4 0x12 0x0 0x2 0x4 0x36 0x1f 0x0 0x0 0x7b 0x8
2023-09-11 20:41:46,898 DEBUG logging:102 New Transaction state "SENDING"
2023-09-11 20:41:46,899 DEBUG logging:102 Changing transaction state from "SENDING" to "WAITING FOR REPLY"
2023-09-11 20:41:53,017 DEBUG logging:102 Transaction failed. (Modbus Error: [Invalid Message] No response received, expected at least 4 bytes (0 received)) 
2023-09-11 20:41:53,017 DEBUG logging:102 Processing: 
2023-09-11 20:41:53,017 DEBUG logging:102 Getting transaction 0
2023-09-11 20:41:53,017 DEBUG logging:102 Changing transaction state from "PROCESSING REPLY" to "TRANSACTION_COMPLETE"
2023-09-11 20:42:25,940 DEBUG logging:102 Current transaction state - IDLE
2023-09-11 20:42:25,941 DEBUG logging:102 Running transaction 1
2023-09-11 20:42:25,941 DEBUG logging:102 SEND: 0x0 0x10 0x4 0x12 0x0 0x2 0x4 0x4f 0x1f 0x0 0x0 0x62 0x54
2023-09-11 20:42:25,941 DEBUG logging:102 New Transaction state "SENDING"
2023-09-11 20:42:25,941 DEBUG logging:102 Changing transaction state from "SENDING" to "WAITING FOR REPLY"
2023-09-11 20:42:32,074 DEBUG logging:102 Transaction failed. (Modbus Error: [Invalid Message] No response received, expected at least 4 bytes (0 received)) 
2023-09-11 20:42:32,074 DEBUG logging:102 Processing: 
2023-09-11 20:42:32,074 DEBUG logging:102 Getting transaction 0
2023-09-11 20:42:32,074 DEBUG logging:102 Changing transaction state from "PROCESSING REPLY" to "TRANSACTION_COMPLETE"
2023-09-11 20:42:51,173 DEBUG logging:102 Current transaction state - IDLE
2023-09-11 20:42:51,173 DEBUG logging:102 Running transaction 1
2023-09-11 20:42:51,173 DEBUG logging:102 SEND: 0x0 0x10 0x4 0x12 0x0 0x2 0x4 0x5b 0x9f 0x0 0x0 0x66 0x4c
2023-09-11 20:42:51,173 DEBUG logging:102 New Transaction state "SENDING"
2023-09-11 20:42:51,173 DEBUG logging:102 Changing transaction state from "SENDING" to "WAITING FOR REPLY"
2023-09-11 20:42:57,313 DEBUG logging:102 Transaction failed. (Modbus Error: [Invalid Message] No response received, expected at least 4 bytes (0 received)) 
2023-09-11 20:42:57,313 DEBUG logging:102 Processing: 
2023-09-11 20:42:57,313 DEBUG logging:102 Getting transaction 0
2023-09-11 20:42:57,313 DEBUG logging:102 Changing transaction state from "PROCESSING REPLY" to "TRANSACTION_COMPLETE"
2023-09-11 20:52:11,282 DEBUG logging:102 Current transaction state - IDLE
2023-09-11 20:52:11,282 DEBUG logging:102 Running transaction 1
2023-09-11 20:52:11,282 DEBUG logging:102 SEND: 0x0 0x10 0x4 0x12 0x0 0x2 0x4 0x12 0xae 0x0 0x0 0x21 0xdf
2023-09-11 20:52:11,282 DEBUG logging:102 New Transaction state "SENDING"
2023-09-11 20:52:11,282 DEBUG logging:102 Changing transaction state from "SENDING" to "WAITING FOR REPLY"
2023-09-11 20:52:17,418 DEBUG logging:102 Transaction failed. (Modbus Error: [Invalid Message] No response received, expected at least 4 bytes (0 received)) 
2023-09-11 20:52:17,418 DEBUG logging:102 Processing: 
2023-09-11 20:52:17,419 DEBUG logging:102 Getting transaction 0
2023-09-11 20:52:17,419 DEBUG logging:102 Changing transaction state from "PROCESSING REPLY" to "TRANSACTION_COMPLETE"
2023-09-11 20:52:30,601 DEBUG logging:102 Current transaction state - IDLE
2023-09-11 20:52:30,602 DEBUG logging:102 Running transaction 1
2023-09-11 20:52:30,602 DEBUG logging:102 SEND: 0x0 0x10 0x4 0x12 0x0 0x2 0x4 0x2f 0xcd 0x0 0x0 0xdc 0x6d
2023-09-11 20:52:30,602 DEBUG logging:102 New Transaction state "SENDING"
2023-09-11 20:52:30,602 DEBUG logging:102 Changing transaction state from "SENDING" to "WAITING FOR REPLY"
2023-09-11 20:52:36,739 DEBUG logging:102 Transaction failed. (Modbus Error: [Invalid Message] No response received, expected at least 4 bytes (0 received)) 
2023-09-11 20:52:36,739 DEBUG logging:102 Processing: 
2023-09-11 20:52:36,739 DEBUG logging:102 Getting transaction 0
2023-09-11 20:52:36,739 DEBUG logging:102 Changing transaction state from "PROCESSING REPLY" to "TRANSACTION_COMPLETE"
2023-09-12 09:43:14,456 DEBUG logging:102 Current transaction state - IDLE
2023-09-12 09:43:14,456 DEBUG logging:102 Running transaction 1
2023-09-12 09:43:14,457 DEBUG logging:102 SEND: 0x0 0x10 0x4 0xc 0x0 0x2 0x4 0xe7 0x0 0xff 0xff 0xf2 0xc2
2023-09-12 09:43:14,457 DEBUG logging:102 New Transaction state "SENDING"
2023-09-12 09:43:14,457 DEBUG logging:102 Changing transaction state from "SENDING" to "WAITING FOR REPLY"
2023-09-12 09:43:20,603 DEBUG logging:102 Transaction failed. (Modbus Error: [Invalid Message] No response received, expected at least 4 bytes (0 received)) 
2023-09-12 09:43:20,603 DEBUG logging:102 Processing: 
2023-09-12 09:43:20,603 DEBUG logging:102 Getting transaction 0
2023-09-12 09:43:20,603 DEBUG logging:102 Changing transaction state from "PROCESSING REPLY" to "TRANSACTION_COMPLETE"
2023-09-12 09:45:19,127 DEBUG logging:102 Current transaction state - IDLE
2023-09-12 09:45:19,128 DEBUG logging:102 Running transaction 1
2023-09-12 09:45:19,128 DEBUG logging:102 SEND: 0x0 0x10 0x4 0x12 0x0 0x2 0x4 0x12 0xae 0x0 0x0 0x21 0xdf
2023-09-12 09:45:19,128 DEBUG logging:102 New Transaction state "SENDING"
2023-09-12 09:45:19,129 DEBUG logging:102 Changing transaction state from "SENDING" to "WAITING FOR REPLY"
2023-09-12 09:45:25,278 DEBUG logging:102 Transaction failed. (Modbus Error: [Invalid Message] No response received, expected at least 4 bytes (0 received)) 
2023-09-12 09:45:25,278 DEBUG logging:102 Processing: 
2023-09-12 09:45:25,278 DEBUG logging:102 Getting transaction 0
2023-09-12 09:45:25,278 DEBUG logging:102 Changing transaction state from "PROCESSING REPLY" to "TRANSACTION_COMPLETE"
2023-09-12 09:45:28,316 DEBUG logging:102 Current transaction state - TRANSACTION_COMPLETE
2023-09-12 09:45:28,316 DEBUG logging:102 Running transaction 2
2023-09-12 09:45:28,316 DEBUG logging:102 SEND: 0x0 0x10 0x4 0x12 0x0 0x2 0x4 0x35 0xa0 0x0 0x0 0x4a 0xa8
2023-09-12 09:45:28,316 DEBUG logging:102 Changing state to IDLE - Last Frame End - None Current Time stamp - 1694504728.31694
2023-09-12 09:45:28,320 DEBUG logging:102 New Transaction state "SENDING"
2023-09-12 09:45:28,320 DEBUG logging:102 Changing transaction state from "SENDING" to "WAITING FOR REPLY"
2023-09-12 09:45:34,352 DEBUG logging:102 No response received, Expected 8 bytes Received 0 bytes !!!!
2023-09-12 09:45:34,352 DEBUG logging:102 Changing transaction state from "WAITING FOR REPLY" to "PROCESSING REPLY"
2023-09-12 09:45:34,352 DEBUG logging:102 RECV: 
2023-09-12 09:45:34,352 DEBUG logging:102 Processing: 
2023-09-12 09:45:34,352 DEBUG logging:102 Getting transaction 0
2023-09-12 09:45:34,461 DEBUG logging:102 Changing transaction state from "PROCESSING REPLY" to "TRANSACTION_COMPLETE"
2023-09-12 09:45:37,497 DEBUG logging:102 Current transaction state - TRANSACTION_COMPLETE
2023-09-12 09:45:37,497 DEBUG logging:102 Running transaction 3
2023-09-12 09:45:37,497 DEBUG logging:102 SEND: 0x0 0x10 0x4 0x12 0x0 0x2 0x4 0x2f 0xcd 0x0 0x0 0xdc 0x6d
2023-09-12 09:45:37,497 DEBUG logging:102 Changing state to IDLE - Last Frame End - None Current Time stamp - 1694504737.497202
2023-09-12 09:45:37,499 DEBUG logging:102 New Transaction state "SENDING"
2023-09-12 09:45:37,500 DEBUG logging:102 Changing transaction state from "SENDING" to "WAITING FOR REPLY"
2023-09-12 09:45:43,520 DEBUG logging:102 No response received, Expected 8 bytes Received 0 bytes !!!!
2023-09-12 09:45:43,520 DEBUG logging:102 Changing transaction state from "WAITING FOR REPLY" to "PROCESSING REPLY"
2023-09-12 09:45:43,520 DEBUG logging:102 RECV: 
2023-09-12 09:45:43,521 DEBUG logging:102 Processing: 
2023-09-12 09:45:43,521 DEBUG logging:102 Getting transaction 0
2023-09-12 09:45:43,643 DEBUG logging:102 Changing transaction state from "PROCESSING REPLY" to "TRANSACTION_COMPLETE"
2023-09-12 09:45:46,679 DEBUG logging:102 Current transaction state - TRANSACTION_COMPLETE
2023-09-12 09:45:46,679 DEBUG logging:102 Running transaction 4
2023-09-12 09:45:46,680 DEBUG logging:102 SEND: 0x0 0x10 0x4 0x12 0x0 0x2 0x4 0x4c 0xec 0x0 0x0 0x92 0x23
2023-09-12 09:45:46,680 DEBUG logging:102 Changing state to IDLE - Last Frame End - None Current Time stamp - 1694504746.680449
2023-09-12 09:45:46,682 DEBUG logging:102 New Transaction state "SENDING"
2023-09-12 09:45:46,683 DEBUG logging:102 Changing transaction state from "SENDING" to "WAITING FOR REPLY"
2023-09-12 09:45:52,701 DEBUG logging:102 No response received, Expected 8 bytes Received 0 bytes !!!!
2023-09-12 09:45:52,701 DEBUG logging:102 Changing transaction state from "WAITING FOR REPLY" to "PROCESSING REPLY"
2023-09-12 09:45:52,701 DEBUG logging:102 RECV: 
2023-09-12 09:45:52,701 DEBUG logging:102 Processing: 
2023-09-12 09:45:52,701 DEBUG logging:102 Getting transaction 0
2023-09-12 09:45:52,826 DEBUG logging:102 Changing transaction state from "PROCESSING REPLY" to "TRANSACTION_COMPLETE"
2023-09-12 09:45:55,870 DEBUG logging:102 Current transaction state - TRANSACTION_COMPLETE
2023-09-12 09:45:55,871 DEBUG logging:102 Running transaction 5
2023-09-12 09:45:55,871 DEBUG logging:102 SEND: 0x0 0x10 0x4 0xc 0x0 0x2 0x4 0x19 0x0 0x0 0x0 0xc2 0x9a
2023-09-12 09:45:55,871 DEBUG logging:102 Changing state to IDLE - Last Frame End - None Current Time stamp - 1694504755.871379
2023-09-12 09:45:55,873 DEBUG logging:102 New Transaction state "SENDING"
2023-09-12 09:45:55,873 DEBUG logging:102 Changing transaction state from "SENDING" to "WAITING FOR REPLY"
2023-09-12 09:46:01,905 DEBUG logging:102 No response received, Expected 8 bytes Received 0 bytes !!!!
2023-09-12 09:46:01,905 DEBUG logging:102 Changing transaction state from "WAITING FOR REPLY" to "PROCESSING REPLY"
2023-09-12 09:46:01,905 DEBUG logging:102 RECV: 
2023-09-12 09:46:01,905 DEBUG logging:102 Processing: 
2023-09-12 09:46:01,905 DEBUG logging:102 Getting transaction 0
2023-09-12 09:46:02,013 DEBUG logging:102 Changing transaction state from "PROCESSING REPLY" to "TRANSACTION_COMPLETE"
2023-09-12 09:46:05,050 DEBUG logging:102 Current transaction state - TRANSACTION_COMPLETE
2023-09-12 09:46:05,050 DEBUG logging:102 Running transaction 6
2023-09-12 09:46:05,050 DEBUG logging:102 SEND: 0x0 0x10 0x4 0xc 0x0 0x2 0x4 0xe7 0x0 0xff 0xff 0xf2 0xc2
2023-09-12 09:46:05,050 DEBUG logging:102 Changing state to IDLE - Last Frame End - None Current Time stamp - 1694504765.050212
2023-09-12 09:46:05,053 DEBUG logging:102 New Transaction state "SENDING"
2023-09-12 09:46:05,053 DEBUG logging:102 Changing transaction state from "SENDING" to "WAITING FOR REPLY"
2023-09-12 09:46:11,060 DEBUG logging:102 No response received, Expected 8 bytes Received 0 bytes !!!!
2023-09-12 09:46:11,060 DEBUG logging:102 Changing transaction state from "WAITING FOR REPLY" to "PROCESSING REPLY"
2023-09-12 09:46:11,060 DEBUG logging:102 RECV: 
2023-09-12 09:46:11,060 DEBUG logging:102 Processing: 
2023-09-12 09:46:11,060 DEBUG logging:102 Getting transaction 0
2023-09-12 09:46:11,183 DEBUG logging:102 Changing transaction state from "PROCESSING REPLY" to "TRANSACTION_COMPLETE"
2023-09-12 09:46:11,226 DEBUG logging:102 Current transaction state - TRANSACTION_COMPLETE
2023-09-12 09:46:11,228 DEBUG logging:102 Running transaction 7
2023-09-12 09:46:11,228 DEBUG logging:102 SEND: 0x0 0x10 0x4 0xc 0x0 0x2 0x4 0xe7 0x0 0xff 0xff 0xf2 0xc2
2023-09-12 09:46:11,228 DEBUG logging:102 Changing state to IDLE - Last Frame End - None Current Time stamp - 1694504771.228249
2023-09-12 09:46:11,230 DEBUG logging:102 New Transaction state "SENDING"
2023-09-12 09:46:11,230 DEBUG logging:102 Changing transaction state from "SENDING" to "WAITING FOR REPLY"
2023-09-12 09:46:17,253 DEBUG logging:102 No response received, Expected 8 bytes Received 0 bytes !!!!
2023-09-12 09:46:17,253 DEBUG logging:102 Changing transaction state from "WAITING FOR REPLY" to "PROCESSING REPLY"
2023-09-12 09:46:17,253 DEBUG logging:102 RECV: 
2023-09-12 09:46:17,253 DEBUG logging:102 Processing: 
2023-09-12 09:46:17,253 DEBUG logging:102 Getting transaction 0
2023-09-12 09:46:17,378 DEBUG logging:102 Changing transaction state from "PROCESSING REPLY" to "TRANSACTION_COMPLETE"
2023-09-12 09:52:52,027 DEBUG logging:102 Current transaction state - IDLE
2023-09-12 09:52:52,028 DEBUG logging:102 Running transaction 1
2023-09-12 09:52:52,028 DEBUG logging:102 SEND: 0x0 0x10 0x4 0x14 0x0 0x2 0x4 0xe 0x8f 0x0 0x0 0xf6 0x6f
2023-09-12 09:52:52,028 DEBUG logging:102 New Transaction state "SENDING"
2023-09-12 09:52:52,028 DEBUG logging:102 Changing transaction state from "SENDING" to "WAITING FOR REPLY"
2023-09-12 09:52:58,178 DEBUG logging:102 Transaction failed. (Modbus Error: [Invalid Message] No response received, expected at least 4 bytes (0 received)) 
2023-09-12 09:52:58,178 DEBUG logging:102 Processing: 
2023-09-12 09:52:58,179 DEBUG logging:102 Getting transaction 0
2023-09-12 09:52:58,179 DEBUG logging:102 Changing transaction state from "PROCESSING REPLY" to "TRANSACTION_COMPLETE"
2023-09-12 09:53:01,602 DEBUG logging:102 Current transaction state - IDLE
2023-09-12 09:53:01,602 DEBUG logging:102 Running transaction 1
2023-09-12 09:53:01,602 DEBUG logging:102 SEND: 0x0 0x10 0x4 0x14 0x0 0x2 0x4 0x1d 0x1f 0x0 0x0 0xf2 0xc6
2023-09-12 09:53:01,602 DEBUG logging:102 New Transaction state "SENDING"
2023-09-12 09:53:01,603 DEBUG logging:102 Changing transaction state from "SENDING" to "WAITING FOR REPLY"
2023-09-12 09:53:07,733 DEBUG logging:102 Transaction failed. (Modbus Error: [Invalid Message] No response received, expected at least 4 bytes (0 received)) 
2023-09-12 09:53:07,733 DEBUG logging:102 Processing: 
2023-09-12 09:53:07,733 DEBUG logging:102 Getting transaction 0
2023-09-12 09:53:07,733 DEBUG logging:102 Changing transaction state from "PROCESSING REPLY" to "TRANSACTION_COMPLETE"
2023-09-12 09:53:12,839 DEBUG logging:102 Current transaction state - IDLE
2023-09-12 09:53:12,839 DEBUG logging:102 Running transaction 1
2023-09-12 09:53:12,839 DEBUG logging:102 SEND: 0x0 0x10 0x4 0x14 0x0 0x2 0x4 0xf1 0x71 0xff 0xff 0xa6 0x3b
2023-09-12 09:53:12,840 DEBUG logging:102 New Transaction state "SENDING"
2023-09-12 09:53:12,840 DEBUG logging:102 Changing transaction state from "SENDING" to "WAITING FOR REPLY"
2023-09-12 09:53:18,979 DEBUG logging:102 Transaction failed. (Modbus Error: [Invalid Message] No response received, expected at least 4 bytes (0 received)) 
2023-09-12 09:53:18,979 DEBUG logging:102 Processing: 
2023-09-12 09:53:18,980 DEBUG logging:102 Getting transaction 0
2023-09-12 09:53:18,980 DEBUG logging:102 Changing transaction state from "PROCESSING REPLY" to "TRANSACTION_COMPLETE"
2023-09-12 09:53:33,913 DEBUG logging:102 Current transaction state - IDLE
2023-09-12 09:53:33,913 DEBUG logging:102 Running transaction 1
2023-09-12 09:53:33,913 DEBUG logging:102 SEND: 0x0 0x10 0x4 0xc 0x0 0x2 0x4 0xe7 0x0 0xff 0xff 0xf2 0xc2
2023-09-12 09:53:33,913 DEBUG logging:102 New Transaction state "SENDING"
2023-09-12 09:53:33,913 DEBUG logging:102 Changing transaction state from "SENDING" to "WAITING FOR REPLY"
2023-09-12 09:53:40,049 DEBUG logging:102 Transaction failed. (Modbus Error: [Invalid Message] No response received, expected at least 4 bytes (0 received)) 
2023-09-12 09:53:40,049 DEBUG logging:102 Processing: 
2023-09-12 09:53:40,049 DEBUG logging:102 Getting transaction 0
2023-09-12 09:53:40,049 DEBUG logging:102 Changing transaction state from "PROCESSING REPLY" to "TRANSACTION_COMPLETE"
2023-09-12 10:31:13,581 DEBUG logging:102 Current transaction state - IDLE
2023-09-12 10:31:13,581 DEBUG logging:102 Running transaction 1
2023-09-12 10:31:13,581 DEBUG logging:102 SEND: 0x0 0x10 0x4 0xc 0x0 0x2 0x4 0x19 0x0 0x0 0x0 0xc2 0x9a
2023-09-12 10:31:13,581 DEBUG logging:102 New Transaction state "SENDING"
2023-09-12 10:31:13,583 DEBUG logging:102 Changing transaction state from "SENDING" to "WAITING FOR REPLY"
2023-09-12 10:31:19,736 DEBUG logging:102 Transaction failed. (Modbus Error: [Invalid Message] No response received, expected at least 4 bytes (0 received)) 
2023-09-12 10:31:19,736 DEBUG logging:102 Processing: 
2023-09-12 10:31:19,736 DEBUG logging:102 Getting transaction 0
2023-09-12 10:31:19,736 DEBUG logging:102 Changing transaction state from "PROCESSING REPLY" to "TRANSACTION_COMPLETE"
2023-09-12 10:31:19,781 DEBUG logging:102 Current transaction state - TRANSACTION_COMPLETE
2023-09-12 10:31:19,781 DEBUG logging:102 Running transaction 2
2023-09-12 10:31:19,781 DEBUG logging:102 SEND: 0x1 0x3 0x4 0x28 0x0 0x2 0x45 0x33
2023-09-12 10:31:19,781 DEBUG logging:102 Changing state to IDLE - Last Frame End - None Current Time stamp - 1694507479.781405
2023-09-12 10:31:19,784 DEBUG logging:102 New Transaction state "SENDING"
2023-09-12 10:31:19,784 DEBUG logging:102 Changing transaction state from "SENDING" to "WAITING FOR REPLY"
2023-09-12 10:31:19,826 DEBUG logging:102 Changing transaction state from "WAITING FOR REPLY" to "PROCESSING REPLY"
2023-09-12 10:31:19,826 DEBUG logging:102 RECV: 0x1 0x3 0x4 0x0 0x0 0x3f 0x80 0xea 0x63
2023-09-12 10:31:19,826 DEBUG logging:102 Processing: 0x1 0x3 0x4 0x0 0x0 0x3f 0x80 0xea 0x63
2023-09-12 10:31:19,826 DEBUG logging:102 Getting Frame - 0x3 0x4 0x0 0x0 0x3f 0x80
2023-09-12 10:31:19,826 DEBUG logging:102 Factory Response[ReadHoldingRegistersResponse': 3]
2023-09-12 10:31:19,826 DEBUG logging:102 Frame advanced, resetting header!!
2023-09-12 10:31:19,826 DEBUG logging:102 Adding transaction 1
2023-09-12 10:31:19,826 DEBUG logging:102 Getting transaction 1
2023-09-12 10:31:19,828 DEBUG logging:102 Changing transaction state from "PROCESSING REPLY" to "TRANSACTION_COMPLETE"
2023-09-12 10:31:19,828 DEBUG logging:102 ReadHoldingRegistersResponse (2)
2023-09-12 10:31:47,210 DEBUG logging:102 Current transaction state - IDLE
2023-09-12 10:31:47,210 DEBUG logging:102 Running transaction 1
2023-09-12 10:31:47,210 DEBUG logging:102 SEND: 0x1 0x3 0x4 0x28 0x0 0x1 0x5 0x32
2023-09-12 10:31:47,210 DEBUG logging:102 New Transaction state "SENDING"
2023-09-12 10:31:47,211 DEBUG logging:102 Changing transaction state from "SENDING" to "WAITING FOR REPLY"
2023-09-12 10:31:47,252 DEBUG logging:102 Changing transaction state from "WAITING FOR REPLY" to "PROCESSING REPLY"
2023-09-12 10:31:47,252 DEBUG logging:102 RECV: 0x1 0x3 0x2 0x0 0x0 0xb8 0x44
2023-09-12 10:31:47,252 DEBUG logging:102 Processing: 0x1 0x3 0x2 0x0 0x0 0xb8 0x44
2023-09-12 10:31:47,252 DEBUG logging:102 Getting Frame - 0x3 0x2 0x0 0x0
2023-09-12 10:31:47,252 DEBUG logging:102 Factory Response[ReadHoldingRegistersResponse': 3]
2023-09-12 10:31:47,252 DEBUG logging:102 Frame advanced, resetting header!!
2023-09-12 10:31:47,252 DEBUG logging:102 Adding transaction 1
2023-09-12 10:31:47,252 DEBUG logging:102 Getting transaction 1
2023-09-12 10:31:47,252 DEBUG logging:102 Changing transaction state from "PROCESSING REPLY" to "TRANSACTION_COMPLETE"
2023-09-12 10:31:47,252 DEBUG logging:102 ReadHoldingRegistersResponse (1)
2023-09-12 10:32:34,410 DEBUG logging:102 Current transaction state - IDLE
2023-09-12 10:32:34,411 DEBUG logging:102 Running transaction 1
2023-09-12 10:32:34,411 DEBUG logging:102 SEND: 0x1 0x3 0x4 0x2a 0x0 0x2 0xe4 0xf3
2023-09-12 10:32:34,411 DEBUG logging:102 New Transaction state "SENDING"
2023-09-12 10:32:34,411 DEBUG logging:102 Changing transaction state from "SENDING" to "WAITING FOR REPLY"
2023-09-12 10:32:34,453 DEBUG logging:102 Changing transaction state from "WAITING FOR REPLY" to "PROCESSING REPLY"
2023-09-12 10:32:34,453 DEBUG logging:102 RECV: 0x1 0x3 0x4 0x0 0x0 0x41 0x20 0xcb 0xbb
2023-09-12 10:32:34,453 DEBUG logging:102 Processing: 0x1 0x3 0x4 0x0 0x0 0x41 0x20 0xcb 0xbb
2023-09-12 10:32:34,453 DEBUG logging:102 Getting Frame - 0x3 0x4 0x0 0x0 0x41 0x20
2023-09-12 10:32:34,453 DEBUG logging:102 Factory Response[ReadHoldingRegistersResponse': 3]
2023-09-12 10:32:34,454 DEBUG logging:102 Frame advanced, resetting header!!
2023-09-12 10:32:34,454 DEBUG logging:102 Adding transaction 1
2023-09-12 10:32:34,454 DEBUG logging:102 Getting transaction 1
2023-09-12 10:32:34,454 DEBUG logging:102 Changing transaction state from "PROCESSING REPLY" to "TRANSACTION_COMPLETE"
2023-09-12 10:32:34,454 DEBUG logging:102 ReadHoldingRegistersResponse (2)
2023-09-12 10:33:20,133 DEBUG logging:102 Current transaction state - IDLE
2023-09-12 10:33:20,133 DEBUG logging:102 Running transaction 1
2023-09-12 10:33:20,133 DEBUG logging:102 SEND: 0x1 0x3 0x4 0x2a 0x0 0x2 0xe4 0xf3
2023-09-12 10:33:20,133 DEBUG logging:102 New Transaction state "SENDING"
2023-09-12 10:33:20,133 DEBUG logging:102 Changing transaction state from "SENDING" to "WAITING FOR REPLY"
2023-09-12 10:33:20,175 DEBUG logging:102 Changing transaction state from "WAITING FOR REPLY" to "PROCESSING REPLY"
2023-09-12 10:33:20,175 DEBUG logging:102 RECV: 0x1 0x3 0x4 0x0 0x0 0x41 0x20 0xcb 0xbb
2023-09-12 10:33:20,175 DEBUG logging:102 Processing: 0x1 0x3 0x4 0x0 0x0 0x41 0x20 0xcb 0xbb
2023-09-12 10:33:20,175 DEBUG logging:102 Getting Frame - 0x3 0x4 0x0 0x0 0x41 0x20
2023-09-12 10:33:20,175 DEBUG logging:102 Factory Response[ReadHoldingRegistersResponse': 3]
2023-09-12 10:33:20,175 DEBUG logging:102 Frame advanced, resetting header!!
2023-09-12 10:33:20,175 DEBUG logging:102 Adding transaction 1
2023-09-12 10:33:20,176 DEBUG logging:102 Getting transaction 1
2023-09-12 10:33:20,176 DEBUG logging:102 Changing transaction state from "PROCESSING REPLY" to "TRANSACTION_COMPLETE"
2023-09-12 10:33:20,176 DEBUG logging:102 ReadHoldingRegistersResponse (2)
2023-09-12 10:36:44,285 DEBUG logging:102 Current transaction state - IDLE
2023-09-12 10:36:44,285 DEBUG logging:102 Running transaction 1
2023-09-12 10:36:44,286 DEBUG logging:102 SEND: 0x1 0x3 0x4 0x2a 0x0 0x2 0xe4 0xf3
2023-09-12 10:36:44,286 DEBUG logging:102 New Transaction state "SENDING"
2023-09-12 10:36:44,286 DEBUG logging:102 Changing transaction state from "SENDING" to "WAITING FOR REPLY"
2023-09-12 10:36:44,328 DEBUG logging:102 Changing transaction state from "WAITING FOR REPLY" to "PROCESSING REPLY"
2023-09-12 10:36:44,328 DEBUG logging:102 RECV: 0x1 0x3 0x4 0x0 0x0 0x41 0x20 0xcb 0xbb
2023-09-12 10:36:44,329 DEBUG logging:102 Processing: 0x1 0x3 0x4 0x0 0x0 0x41 0x20 0xcb 0xbb
2023-09-12 10:36:44,329 DEBUG logging:102 Getting Frame - 0x3 0x4 0x0 0x0 0x41 0x20
2023-09-12 10:36:44,329 DEBUG logging:102 Factory Response[ReadHoldingRegistersResponse': 3]
2023-09-12 10:36:44,329 DEBUG logging:102 Frame advanced, resetting header!!
2023-09-12 10:36:44,329 DEBUG logging:102 Adding transaction 1
2023-09-12 10:36:44,329 DEBUG logging:102 Getting transaction 1
2023-09-12 10:36:44,329 DEBUG logging:102 Changing transaction state from "PROCESSING REPLY" to "TRANSACTION_COMPLETE"
2023-09-12 10:36:44,329 DEBUG logging:102 ReadHoldingRegistersResponse (2)
2023-09-12 10:36:58,952 DEBUG logging:102 Current transaction state - IDLE
2023-09-12 10:36:58,952 DEBUG logging:102 Running transaction 1
2023-09-12 10:36:58,952 DEBUG logging:102 SEND: 0x1 0x3 0x4 0x2a 0x0 0x2 0xe4 0xf3
2023-09-12 10:36:58,952 DEBUG logging:102 New Transaction state "SENDING"
2023-09-12 10:36:58,953 DEBUG logging:102 Changing transaction state from "SENDING" to "WAITING FOR REPLY"
2023-09-12 10:36:58,994 DEBUG logging:102 Changing transaction state from "WAITING FOR REPLY" to "PROCESSING REPLY"
2023-09-12 10:36:58,994 DEBUG logging:102 RECV: 0x1 0x3 0x4 0x0 0x0 0x41 0x20 0xcb 0xbb
2023-09-12 10:36:58,994 DEBUG logging:102 Processing: 0x1 0x3 0x4 0x0 0x0 0x41 0x20 0xcb 0xbb
2023-09-12 10:36:58,995 DEBUG logging:102 Getting Frame - 0x3 0x4 0x0 0x0 0x41 0x20
2023-09-12 10:36:58,995 DEBUG logging:102 Factory Response[ReadHoldingRegistersResponse': 3]
2023-09-12 10:36:58,995 DEBUG logging:102 Frame advanced, resetting header!!
2023-09-12 10:36:58,995 DEBUG logging:102 Adding transaction 1
2023-09-12 10:36:58,995 DEBUG logging:102 Getting transaction 1
2023-09-12 10:36:58,995 DEBUG logging:102 Changing transaction state from "PROCESSING REPLY" to "TRANSACTION_COMPLETE"
2023-09-12 10:36:58,995 DEBUG logging:102 ReadHoldingRegistersResponse (2)
2023-09-12 10:38:04,482 DEBUG logging:102 Current transaction state - IDLE
2023-09-12 10:38:04,482 DEBUG logging:102 Running transaction 1
2023-09-12 10:38:04,482 DEBUG logging:102 SEND: 0x1 0x3 0x4 0x2a 0x0 0x2 0xe4 0xf3
2023-09-12 10:38:04,482 DEBUG logging:102 New Transaction state "SENDING"
2023-09-12 10:38:04,483 DEBUG logging:102 Changing transaction state from "SENDING" to "WAITING FOR REPLY"
2023-09-12 10:38:04,524 DEBUG logging:102 Changing transaction state from "WAITING FOR REPLY" to "PROCESSING REPLY"
2023-09-12 10:38:04,524 DEBUG logging:102 RECV: 0x1 0x3 0x4 0x0 0x0 0x41 0x20 0xcb 0xbb
2023-09-12 10:38:04,524 DEBUG logging:102 Processing: 0x1 0x3 0x4 0x0 0x0 0x41 0x20 0xcb 0xbb
2023-09-12 10:38:04,524 DEBUG logging:102 Getting Frame - 0x3 0x4 0x0 0x0 0x41 0x20
2023-09-12 10:38:04,525 DEBUG logging:102 Factory Response[ReadHoldingRegistersResponse': 3]
2023-09-12 10:38:04,525 DEBUG logging:102 Frame advanced, resetting header!!
2023-09-12 10:38:04,525 DEBUG logging:102 Adding transaction 1
2023-09-12 10:38:04,525 DEBUG logging:102 Getting transaction 1
2023-09-12 10:38:04,525 DEBUG logging:102 Changing transaction state from "PROCESSING REPLY" to "TRANSACTION_COMPLETE"
2023-09-12 10:38:04,525 DEBUG logging:102 ReadHoldingRegistersResponse (2)
2023-09-12 10:38:27,932 DEBUG logging:102 Current transaction state - IDLE
2023-09-12 10:38:27,932 DEBUG logging:102 Running transaction 1
2023-09-12 10:38:27,932 DEBUG logging:102 SEND: 0x1 0x3 0x4 0x2a 0x0 0x2 0xe4 0xf3
2023-09-12 10:38:27,933 DEBUG logging:102 New Transaction state "SENDING"
2023-09-12 10:38:27,933 DEBUG logging:102 Changing transaction state from "SENDING" to "WAITING FOR REPLY"
2023-09-12 10:38:27,974 DEBUG logging:102 Changing transaction state from "WAITING FOR REPLY" to "PROCESSING REPLY"
2023-09-12 10:38:27,974 DEBUG logging:102 RECV: 0x1 0x3 0x4 0x0 0x0 0x41 0x20 0xcb 0xbb
2023-09-12 10:38:27,974 DEBUG logging:102 Processing: 0x1 0x3 0x4 0x0 0x0 0x41 0x20 0xcb 0xbb
2023-09-12 10:38:27,974 DEBUG logging:102 Getting Frame - 0x3 0x4 0x0 0x0 0x41 0x20
2023-09-12 10:38:27,974 DEBUG logging:102 Factory Response[ReadHoldingRegistersResponse': 3]
2023-09-12 10:38:27,974 DEBUG logging:102 Frame advanced, resetting header!!
2023-09-12 10:38:27,974 DEBUG logging:102 Adding transaction 1
2023-09-12 10:38:27,974 DEBUG logging:102 Getting transaction 1
2023-09-12 10:38:27,976 DEBUG logging:102 Changing transaction state from "PROCESSING REPLY" to "TRANSACTION_COMPLETE"
2023-09-12 10:38:27,976 DEBUG logging:102 ReadHoldingRegistersResponse (2)
2023-09-12 10:38:40,777 DEBUG logging:102 Current transaction state - IDLE
2023-09-12 10:38:40,777 DEBUG logging:102 Running transaction 1
2023-09-12 10:38:40,777 DEBUG logging:102 SEND: 0x1 0x3 0x4 0x2a 0x0 0x2 0xe4 0xf3
2023-09-12 10:38:40,777 DEBUG logging:102 New Transaction state "SENDING"
2023-09-12 10:38:40,778 DEBUG logging:102 Changing transaction state from "SENDING" to "WAITING FOR REPLY"
2023-09-12 10:38:40,820 DEBUG logging:102 Changing transaction state from "WAITING FOR REPLY" to "PROCESSING REPLY"
2023-09-12 10:38:40,820 DEBUG logging:102 RECV: 0x1 0x3 0x4 0x0 0x0 0x41 0x20 0xcb 0xbb
2023-09-12 10:38:40,820 DEBUG logging:102 Processing: 0x1 0x3 0x4 0x0 0x0 0x41 0x20 0xcb 0xbb
2023-09-12 10:38:40,820 DEBUG logging:102 Getting Frame - 0x3 0x4 0x0 0x0 0x41 0x20
2023-09-12 10:38:40,820 DEBUG logging:102 Factory Response[ReadHoldingRegistersResponse': 3]
2023-09-12 10:38:40,820 DEBUG logging:102 Frame advanced, resetting header!!
2023-09-12 10:38:40,820 DEBUG logging:102 Adding transaction 1
2023-09-12 10:38:40,820 DEBUG logging:102 Getting transaction 1
2023-09-12 10:38:40,820 DEBUG logging:102 Changing transaction state from "PROCESSING REPLY" to "TRANSACTION_COMPLETE"
2023-09-12 10:38:40,820 DEBUG logging:102 ReadHoldingRegistersResponse (2)
2023-09-12 10:41:31,112 DEBUG logging:102 Current transaction state - IDLE
2023-09-12 10:41:31,112 DEBUG logging:102 Running transaction 1
2023-09-12 10:41:31,112 DEBUG logging:102 SEND: 0x1 0x3 0x4 0x2a 0x0 0x2 0xe4 0xf3
2023-09-12 10:41:31,112 DEBUG logging:102 New Transaction state "SENDING"
2023-09-12 10:41:31,112 DEBUG logging:102 Changing transaction state from "SENDING" to "WAITING FOR REPLY"
2023-09-12 10:41:31,154 DEBUG logging:102 Changing transaction state from "WAITING FOR REPLY" to "PROCESSING REPLY"
2023-09-12 10:41:31,154 DEBUG logging:102 RECV: 0x1 0x3 0x4 0x0 0x0 0x41 0x20 0xcb 0xbb
2023-09-12 10:41:31,154 DEBUG logging:102 Processing: 0x1 0x3 0x4 0x0 0x0 0x41 0x20 0xcb 0xbb
2023-09-12 10:41:31,155 DEBUG logging:102 Getting Frame - 0x3 0x4 0x0 0x0 0x41 0x20
2023-09-12 10:41:31,155 DEBUG logging:102 Factory Response[ReadHoldingRegistersResponse': 3]
2023-09-12 10:41:31,155 DEBUG logging:102 Frame advanced, resetting header!!
2023-09-12 10:41:31,155 DEBUG logging:102 Adding transaction 1
2023-09-12 10:41:31,155 DEBUG logging:102 Getting transaction 1
2023-09-12 10:41:31,155 DEBUG logging:102 Changing transaction state from "PROCESSING REPLY" to "TRANSACTION_COMPLETE"
2023-09-12 10:41:31,155 DEBUG logging:102 [0, 16672]
2023-09-12 10:41:31,155 DEBUG logging:102 handle: [b'A ', b'\x00\x00']
2023-09-12 10:46:59,710 DEBUG logging:102 Current transaction state - IDLE
2023-09-12 10:46:59,710 DEBUG logging:102 Running transaction 1
2023-09-12 10:46:59,710 DEBUG logging:102 SEND: 0x1 0x3 0x4 0x2a 0x0 0x2 0xe4 0xf3
2023-09-12 10:46:59,710 DEBUG logging:102 New Transaction state "SENDING"
2023-09-12 10:46:59,711 DEBUG logging:102 Changing transaction state from "SENDING" to "WAITING FOR REPLY"
2023-09-12 10:46:59,752 DEBUG logging:102 Changing transaction state from "WAITING FOR REPLY" to "PROCESSING REPLY"
2023-09-12 10:46:59,752 DEBUG logging:102 RECV: 0x1 0x3 0x4 0x0 0x0 0x41 0x20 0xcb 0xbb
2023-09-12 10:46:59,752 DEBUG logging:102 Processing: 0x1 0x3 0x4 0x0 0x0 0x41 0x20 0xcb 0xbb
2023-09-12 10:46:59,753 DEBUG logging:102 Getting Frame - 0x3 0x4 0x0 0x0 0x41 0x20
2023-09-12 10:46:59,753 DEBUG logging:102 Factory Response[ReadHoldingRegistersResponse': 3]
2023-09-12 10:46:59,753 DEBUG logging:102 Frame advanced, resetting header!!
2023-09-12 10:46:59,753 DEBUG logging:102 Adding transaction 1
2023-09-12 10:46:59,753 DEBUG logging:102 Getting transaction 1
2023-09-12 10:46:59,753 DEBUG logging:102 Changing transaction state from "PROCESSING REPLY" to "TRANSACTION_COMPLETE"
2023-09-12 10:46:59,753 DEBUG logging:102 [0, 16672]
2023-09-12 10:46:59,753 DEBUG logging:102 handle: [b'A ', b'\x00\x00']
2023-09-12 10:46:59,753 DEBUG logging:102 Current transaction state - TRANSACTION_COMPLETE
2023-09-12 10:46:59,753 DEBUG logging:102 Running transaction 2
2023-09-12 10:46:59,755 DEBUG logging:102 SEND: 0x0 0x10 0x4 0x2a 0x0 0x2 0x4 0x0 0x0 0x40 0xa0 0x76 0x4c
2023-09-12 10:46:59,755 DEBUG logging:102 Changing state to IDLE - Last Frame End - 1694508419.752866 Current Time stamp - 1694508419.755026
2023-09-12 10:46:59,755 DEBUG logging:102 Waiting for 3.5 char before next send - 1.75 ms
2023-09-12 10:46:59,757 DEBUG logging:102 New Transaction state "SENDING"
2023-09-12 10:46:59,757 DEBUG logging:102 Changing transaction state from "SENDING" to "WAITING FOR REPLY"
2023-09-12 10:47:05,895 DEBUG logging:102 Transaction failed. (Modbus Error: [Invalid Message] No response received, expected at least 4 bytes (0 received)) 
2023-09-12 10:47:05,895 DEBUG logging:102 Processing: 
2023-09-12 10:47:05,895 DEBUG logging:102 Getting transaction 0
2023-09-12 10:47:05,895 DEBUG logging:102 Changing transaction state from "PROCESSING REPLY" to "TRANSACTION_COMPLETE"
2023-09-12 10:47:08,931 DEBUG logging:102 Current transaction state - TRANSACTION_COMPLETE
2023-09-12 10:47:08,931 DEBUG logging:102 Running transaction 3
2023-09-12 10:47:08,931 DEBUG logging:102 SEND: 0x1 0x3 0x4 0x2a 0x0 0x2 0xe4 0xf3
2023-09-12 10:47:08,931 DEBUG logging:102 Changing state to IDLE - Last Frame End - None Current Time stamp - 1694508428.931872
2023-09-12 10:47:08,934 DEBUG logging:102 New Transaction state "SENDING"
2023-09-12 10:47:08,934 DEBUG logging:102 Changing transaction state from "SENDING" to "WAITING FOR REPLY"
2023-09-12 10:47:08,975 DEBUG logging:102 Changing transaction state from "WAITING FOR REPLY" to "PROCESSING REPLY"
2023-09-12 10:47:08,975 DEBUG logging:102 RECV: 0x1 0x3 0x4 0x0 0x0 0x40 0xa0 0xcb 0x8b
2023-09-12 10:47:08,975 DEBUG logging:102 Processing: 0x1 0x3 0x4 0x0 0x0 0x40 0xa0 0xcb 0x8b
2023-09-12 10:47:08,975 DEBUG logging:102 Getting Frame - 0x3 0x4 0x0 0x0 0x40 0xa0
2023-09-12 10:47:08,975 DEBUG logging:102 Factory Response[ReadHoldingRegistersResponse': 3]
2023-09-12 10:47:08,975 DEBUG logging:102 Frame advanced, resetting header!!
2023-09-12 10:47:08,975 DEBUG logging:102 Adding transaction 1
2023-09-12 10:47:08,975 DEBUG logging:102 Getting transaction 1
2023-09-12 10:47:08,975 DEBUG logging:102 Changing transaction state from "PROCESSING REPLY" to "TRANSACTION_COMPLETE"
2023-09-12 10:47:08,975 DEBUG logging:102 [0, 16544]
2023-09-12 10:47:08,975 DEBUG logging:102 handle: [b'@\xa0', b'\x00\x00']
2023-09-12 10:47:08,975 DEBUG logging:102 Current transaction state - TRANSACTION_COMPLETE
2023-09-12 10:47:08,975 DEBUG logging:102 Running transaction 4
2023-09-12 10:47:08,975 DEBUG logging:102 SEND: 0x0 0x10 0x4 0xc 0x0 0x2 0x4 0xe7 0x0 0xff 0xff 0xf2 0xc2
2023-09-12 10:47:08,976 DEBUG logging:102 Changing state to IDLE - Last Frame End - 1694508428.975519 Current Time stamp - 1694508428.976786
2023-09-12 10:47:08,976 DEBUG logging:102 Waiting for 3.5 char before next send - 1.75 ms
2023-09-12 10:47:08,979 DEBUG logging:102 New Transaction state "SENDING"
2023-09-12 10:47:08,979 DEBUG logging:102 Changing transaction state from "SENDING" to "WAITING FOR REPLY"
2023-09-12 10:47:15,010 DEBUG logging:102 No response received, Expected 8 bytes Received 0 bytes !!!!
2023-09-12 10:47:15,010 DEBUG logging:102 Changing transaction state from "WAITING FOR REPLY" to "PROCESSING REPLY"
2023-09-12 10:47:15,010 DEBUG logging:102 RECV: 
2023-09-12 10:47:15,010 DEBUG logging:102 Processing: 
2023-09-12 10:47:15,010 DEBUG logging:102 Getting transaction 0
2023-09-12 10:47:15,118 DEBUG logging:102 Changing transaction state from "PROCESSING REPLY" to "TRANSACTION_COMPLETE"
2023-09-12 10:48:02,895 DEBUG logging:102 Current transaction state - IDLE
2023-09-12 10:48:02,896 DEBUG logging:102 Running transaction 1
2023-09-12 10:48:02,896 DEBUG logging:102 SEND: 0x1 0x3 0x4 0x2a 0x0 0x2 0xe4 0xf3
2023-09-12 10:48:02,896 DEBUG logging:102 New Transaction state "SENDING"
2023-09-12 10:48:02,896 DEBUG logging:102 Changing transaction state from "SENDING" to "WAITING FOR REPLY"
2023-09-12 10:48:02,938 DEBUG logging:102 Changing transaction state from "WAITING FOR REPLY" to "PROCESSING REPLY"
2023-09-12 10:48:02,939 DEBUG logging:102 RECV: 0x1 0x3 0x4 0x0 0x0 0x40 0xa0 0xcb 0x8b
2023-09-12 10:48:02,939 DEBUG logging:102 Processing: 0x1 0x3 0x4 0x0 0x0 0x40 0xa0 0xcb 0x8b
2023-09-12 10:48:02,939 DEBUG logging:102 Getting Frame - 0x3 0x4 0x0 0x0 0x40 0xa0
2023-09-12 10:48:02,939 DEBUG logging:102 Factory Response[ReadHoldingRegistersResponse': 3]
2023-09-12 10:48:02,939 DEBUG logging:102 Frame advanced, resetting header!!
2023-09-12 10:48:02,939 DEBUG logging:102 Adding transaction 1
2023-09-12 10:48:02,939 DEBUG logging:102 Getting transaction 1
2023-09-12 10:48:02,939 DEBUG logging:102 Changing transaction state from "PROCESSING REPLY" to "TRANSACTION_COMPLETE"
2023-09-12 10:48:02,939 DEBUG logging:102 [0, 16544]
2023-09-12 10:48:02,939 DEBUG logging:102 handle: [b'@\xa0', b'\x00\x00']
2023-09-12 10:48:02,939 DEBUG logging:102 Current transaction state - TRANSACTION_COMPLETE
2023-09-12 10:48:02,939 DEBUG logging:102 Running transaction 2
2023-09-12 10:48:02,939 DEBUG logging:102 SEND: 0x0 0x10 0x4 0xc 0x0 0x2 0x4 0xe7 0x0 0xff 0xff 0xf2 0xc2
2023-09-12 10:48:02,940 DEBUG logging:102 Changing state to IDLE - Last Frame End - 1694508482.938667 Current Time stamp - 1694508482.940233
2023-09-12 10:48:02,940 DEBUG logging:102 Waiting for 3.5 char before next send - 1.75 ms
2023-09-12 10:48:02,942 DEBUG logging:102 New Transaction state "SENDING"
2023-09-12 10:48:02,942 DEBUG logging:102 Changing transaction state from "SENDING" to "WAITING FOR REPLY"
2023-09-12 10:48:09,089 DEBUG logging:102 Transaction failed. (Modbus Error: [Invalid Message] No response received, expected at least 4 bytes (0 received)) 
2023-09-12 10:48:09,089 DEBUG logging:102 Processing: 
2023-09-12 10:48:09,089 DEBUG logging:102 Getting transaction 0
2023-09-12 10:48:09,089 DEBUG logging:102 Changing transaction state from "PROCESSING REPLY" to "TRANSACTION_COMPLETE"
2023-09-12 10:48:09,127 DEBUG logging:102 Current transaction state - TRANSACTION_COMPLETE
2023-09-12 10:48:09,127 DEBUG logging:102 Running transaction 3
2023-09-12 10:48:09,127 DEBUG logging:102 SEND: 0x1 0x3 0x4 0x2a 0x0 0x2 0xe4 0xf3
2023-09-12 10:48:09,127 DEBUG logging:102 Changing state to IDLE - Last Frame End - None Current Time stamp - 1694508489.12769
2023-09-12 10:48:09,130 DEBUG logging:102 New Transaction state "SENDING"
2023-09-12 10:48:09,130 DEBUG logging:102 Changing transaction state from "SENDING" to "WAITING FOR REPLY"
2023-09-12 10:48:09,171 DEBUG logging:102 Changing transaction state from "WAITING FOR REPLY" to "PROCESSING REPLY"
2023-09-12 10:48:09,172 DEBUG logging:102 RECV: 0x1 0x3 0x4 0x0 0x0 0x40 0xa0 0xcb 0x8b
2023-09-12 10:48:09,172 DEBUG logging:102 Processing: 0x1 0x3 0x4 0x0 0x0 0x40 0xa0 0xcb 0x8b
2023-09-12 10:48:09,172 DEBUG logging:102 Getting Frame - 0x3 0x4 0x0 0x0 0x40 0xa0
2023-09-12 10:48:09,172 DEBUG logging:102 Factory Response[ReadHoldingRegistersResponse': 3]
2023-09-12 10:48:09,172 DEBUG logging:102 Frame advanced, resetting header!!
2023-09-12 10:48:09,172 DEBUG logging:102 Adding transaction 1
2023-09-12 10:48:09,172 DEBUG logging:102 Getting transaction 1
2023-09-12 10:48:09,172 DEBUG logging:102 Changing transaction state from "PROCESSING REPLY" to "TRANSACTION_COMPLETE"
2023-09-12 10:48:09,172 DEBUG logging:102 [0, 16544]
2023-09-12 10:48:09,172 DEBUG logging:102 handle: [b'@\xa0', b'\x00\x00']
2023-09-12 10:48:11,173 DEBUG logging:102 Current transaction state - TRANSACTION_COMPLETE
2023-09-12 10:48:11,173 DEBUG logging:102 Running transaction 4
2023-09-12 10:48:11,173 DEBUG logging:102 SEND: 0x0 0x10 0x4 0x2a 0x0 0x2 0x4 0x0 0x0 0x41 0x20 0x76 0x7c
2023-09-12 10:48:11,173 DEBUG logging:102 Changing state to IDLE - Last Frame End - 1694508489.171801 Current Time stamp - 1694508491.17329
2023-09-12 10:48:11,173 DEBUG logging:102 New Transaction state "SENDING"
2023-09-12 10:48:11,173 DEBUG logging:102 Changing transaction state from "SENDING" to "WAITING FOR REPLY"
2023-09-12 10:48:17,197 DEBUG logging:102 No response received, Expected 8 bytes Received 0 bytes !!!!
2023-09-12 10:48:17,197 DEBUG logging:102 Changing transaction state from "WAITING FOR REPLY" to "PROCESSING REPLY"
2023-09-12 10:48:17,198 DEBUG logging:102 RECV: 
2023-09-12 10:48:17,198 DEBUG logging:102 Processing: 
2023-09-12 10:48:17,198 DEBUG logging:102 Getting transaction 0
2023-09-12 10:48:17,323 DEBUG logging:102 Changing transaction state from "PROCESSING REPLY" to "TRANSACTION_COMPLETE"
2023-09-12 10:48:20,364 DEBUG logging:102 Current transaction state - TRANSACTION_COMPLETE
2023-09-12 10:48:20,364 DEBUG logging:102 Running transaction 5
2023-09-12 10:48:20,364 DEBUG logging:102 SEND: 0x1 0x3 0x4 0x2a 0x0 0x2 0xe4 0xf3
2023-09-12 10:48:20,364 DEBUG logging:102 Changing state to IDLE - Last Frame End - None Current Time stamp - 1694508500.364894
2023-09-12 10:48:20,367 DEBUG logging:102 New Transaction state "SENDING"
2023-09-12 10:48:20,367 DEBUG logging:102 Changing transaction state from "SENDING" to "WAITING FOR REPLY"
2023-09-12 10:48:20,408 DEBUG logging:102 Changing transaction state from "WAITING FOR REPLY" to "PROCESSING REPLY"
2023-09-12 10:48:20,409 DEBUG logging:102 RECV: 0x1 0x3 0x4 0x0 0x0 0x41 0x20 0xcb 0xbb
2023-09-12 10:48:20,409 DEBUG logging:102 Processing: 0x1 0x3 0x4 0x0 0x0 0x41 0x20 0xcb 0xbb
2023-09-12 10:48:20,409 DEBUG logging:102 Getting Frame - 0x3 0x4 0x0 0x0 0x41 0x20
2023-09-12 10:48:20,409 DEBUG logging:102 Factory Response[ReadHoldingRegistersResponse': 3]
2023-09-12 10:48:20,409 DEBUG logging:102 Frame advanced, resetting header!!
2023-09-12 10:48:20,409 DEBUG logging:102 Adding transaction 1
2023-09-12 10:48:20,409 DEBUG logging:102 Getting transaction 1
2023-09-12 10:48:20,409 DEBUG logging:102 Changing transaction state from "PROCESSING REPLY" to "TRANSACTION_COMPLETE"
2023-09-12 10:48:20,409 DEBUG logging:102 [0, 16672]
2023-09-12 10:48:20,409 DEBUG logging:102 handle: [b'A ', b'\x00\x00']
2023-09-12 10:48:20,409 DEBUG logging:102 Current transaction state - TRANSACTION_COMPLETE
2023-09-12 10:48:20,409 DEBUG logging:102 Running transaction 6
2023-09-12 10:48:20,409 DEBUG logging:102 SEND: 0x0 0x10 0x4 0xc 0x0 0x2 0x4 0xe7 0x0 0xff 0xff 0xf2 0xc2
2023-09-12 10:48:20,410 DEBUG logging:102 Changing state to IDLE - Last Frame End - 1694508500.408957 Current Time stamp - 1694508500.410485
2023-09-12 10:48:20,410 DEBUG logging:102 Waiting for 3.5 char before next send - 1.75 ms
2023-09-12 10:48:20,412 DEBUG logging:102 New Transaction state "SENDING"
2023-09-12 10:48:20,412 DEBUG logging:102 Changing transaction state from "SENDING" to "WAITING FOR REPLY"
2023-09-12 10:48:26,435 DEBUG logging:102 No response received, Expected 8 bytes Received 0 bytes !!!!
2023-09-12 10:48:26,435 DEBUG logging:102 Changing transaction state from "WAITING FOR REPLY" to "PROCESSING REPLY"
2023-09-12 10:48:26,435 DEBUG logging:102 RECV: 
2023-09-12 10:48:26,435 DEBUG logging:102 Processing: 
2023-09-12 10:48:26,435 DEBUG logging:102 Getting transaction 0
2023-09-12 10:48:26,559 DEBUG logging:102 Changing transaction state from "PROCESSING REPLY" to "TRANSACTION_COMPLETE"
2023-09-12 10:48:48,122 DEBUG logging:102 Current transaction state - IDLE
2023-09-12 10:48:48,122 DEBUG logging:102 Running transaction 1
2023-09-12 10:48:48,123 DEBUG logging:102 SEND: 0x0 0x10 0x4 0x2a 0x0 0x2 0x4 0x0 0x0 0x40 0x40 0x77 0xc4
2023-09-12 10:48:48,123 DEBUG logging:102 New Transaction state "SENDING"
2023-09-12 10:48:48,124 DEBUG logging:102 Changing transaction state from "SENDING" to "WAITING FOR REPLY"
2023-09-12 10:48:54,258 DEBUG logging:102 Transaction failed. (Modbus Error: [Invalid Message] No response received, expected at least 4 bytes (0 received)) 
2023-09-12 10:48:54,258 DEBUG logging:102 Processing: 
2023-09-12 10:48:54,259 DEBUG logging:102 Getting transaction 0
2023-09-12 10:48:54,259 DEBUG logging:102 Changing transaction state from "PROCESSING REPLY" to "TRANSACTION_COMPLETE"
2023-09-12 10:48:54,293 DEBUG logging:102 Current transaction state - TRANSACTION_COMPLETE
2023-09-12 10:48:54,293 DEBUG logging:102 Running transaction 2
2023-09-12 10:48:54,294 DEBUG logging:102 SEND: 0x1 0x3 0x4 0x2a 0x0 0x2 0xe4 0xf3
2023-09-12 10:48:54,294 DEBUG logging:102 Changing state to IDLE - Last Frame End - None Current Time stamp - 1694508534.294924
2023-09-12 10:48:54,297 DEBUG logging:102 New Transaction state "SENDING"
2023-09-12 10:48:54,297 DEBUG logging:102 Changing transaction state from "SENDING" to "WAITING FOR REPLY"
2023-09-12 10:48:54,338 DEBUG logging:102 Changing transaction state from "WAITING FOR REPLY" to "PROCESSING REPLY"
2023-09-12 10:48:54,338 DEBUG logging:102 RECV: 0x1 0x3 0x4 0x0 0x0 0x40 0x40 0xca 0x3
2023-09-12 10:48:54,338 DEBUG logging:102 Processing: 0x1 0x3 0x4 0x0 0x0 0x40 0x40 0xca 0x3
2023-09-12 10:48:54,338 DEBUG logging:102 Getting Frame - 0x3 0x4 0x0 0x0 0x40 0x40
2023-09-12 10:48:54,339 DEBUG logging:102 Factory Response[ReadHoldingRegistersResponse': 3]
2023-09-12 10:48:54,339 DEBUG logging:102 Frame advanced, resetting header!!
2023-09-12 10:48:54,339 DEBUG logging:102 Adding transaction 1
2023-09-12 10:48:54,339 DEBUG logging:102 Getting transaction 1
2023-09-12 10:48:54,339 DEBUG logging:102 Changing transaction state from "PROCESSING REPLY" to "TRANSACTION_COMPLETE"
2023-09-12 10:48:54,339 DEBUG logging:102 [0, 16448]
2023-09-12 10:48:54,339 DEBUG logging:102 handle: [b'@@', b'\x00\x00']
2023-09-12 10:48:54,339 DEBUG logging:102 Current transaction state - TRANSACTION_COMPLETE
2023-09-12 10:48:54,339 DEBUG logging:102 Running transaction 3
2023-09-12 10:48:54,339 DEBUG logging:102 SEND: 0x0 0x10 0x4 0xc 0x0 0x2 0x4 0x19 0x0 0x0 0x0 0xc2 0x9a
2023-09-12 10:48:54,339 DEBUG logging:102 Changing state to IDLE - Last Frame End - 1694508534.338818 Current Time stamp - 1694508534.339328
2023-09-12 10:48:54,339 DEBUG logging:102 Waiting for 3.5 char before next send - 1.75 ms
2023-09-12 10:48:54,342 DEBUG logging:102 New Transaction state "SENDING"
2023-09-12 10:48:54,342 DEBUG logging:102 Changing transaction state from "SENDING" to "WAITING FOR REPLY"
2023-09-12 10:49:00,355 DEBUG logging:102 No response received, Expected 8 bytes Received 0 bytes !!!!
2023-09-12 10:49:00,355 DEBUG logging:102 Changing transaction state from "WAITING FOR REPLY" to "PROCESSING REPLY"
2023-09-12 10:49:00,355 DEBUG logging:102 RECV: 
2023-09-12 10:49:00,355 DEBUG logging:102 Processing: 
2023-09-12 10:49:00,355 DEBUG logging:102 Getting transaction 0
2023-09-12 10:49:00,464 DEBUG logging:102 Changing transaction state from "PROCESSING REPLY" to "TRANSACTION_COMPLETE"
2023-09-12 10:49:00,507 DEBUG logging:102 Current transaction state - TRANSACTION_COMPLETE
2023-09-12 10:49:00,507 DEBUG logging:102 Running transaction 4
2023-09-12 10:49:00,507 DEBUG logging:102 SEND: 0x1 0x3 0x4 0x2a 0x0 0x2 0xe4 0xf3
2023-09-12 10:49:00,507 DEBUG logging:102 Changing state to IDLE - Last Frame End - None Current Time stamp - 1694508540.507428
2023-09-12 10:49:00,510 DEBUG logging:102 New Transaction state "SENDING"
2023-09-12 10:49:00,510 DEBUG logging:102 Changing transaction state from "SENDING" to "WAITING FOR REPLY"
2023-09-12 10:49:00,551 DEBUG logging:102 Changing transaction state from "WAITING FOR REPLY" to "PROCESSING REPLY"
2023-09-12 10:49:00,552 DEBUG logging:102 RECV: 0x1 0x3 0x4 0x0 0x0 0x40 0x40 0xca 0x3
2023-09-12 10:49:00,552 DEBUG logging:102 Processing: 0x1 0x3 0x4 0x0 0x0 0x40 0x40 0xca 0x3
2023-09-12 10:49:00,552 DEBUG logging:102 Getting Frame - 0x3 0x4 0x0 0x0 0x40 0x40
2023-09-12 10:49:00,552 DEBUG logging:102 Factory Response[ReadHoldingRegistersResponse': 3]
2023-09-12 10:49:00,552 DEBUG logging:102 Frame advanced, resetting header!!
2023-09-12 10:49:00,552 DEBUG logging:102 Adding transaction 1
2023-09-12 10:49:00,552 DEBUG logging:102 Getting transaction 1
2023-09-12 10:49:00,552 DEBUG logging:102 Changing transaction state from "PROCESSING REPLY" to "TRANSACTION_COMPLETE"
2023-09-12 10:49:00,552 DEBUG logging:102 [0, 16448]
2023-09-12 10:49:00,552 DEBUG logging:102 handle: [b'@@', b'\x00\x00']
2023-09-12 10:49:02,553 DEBUG logging:102 Current transaction state - TRANSACTION_COMPLETE
2023-09-12 10:49:02,553 DEBUG logging:102 Running transaction 5
2023-09-12 10:49:02,553 DEBUG logging:102 SEND: 0x0 0x10 0x4 0x2a 0x0 0x2 0x4 0x0 0x0 0x41 0x20 0x76 0x7c
2023-09-12 10:49:02,553 DEBUG logging:102 Changing state to IDLE - Last Frame End - 1694508540.551528 Current Time stamp - 1694508542.553147
2023-09-12 10:49:02,553 DEBUG logging:102 New Transaction state "SENDING"
2023-09-12 10:49:02,553 DEBUG logging:102 Changing transaction state from "SENDING" to "WAITING FOR REPLY"
2023-09-12 10:49:08,565 DEBUG logging:102 No response received, Expected 8 bytes Received 0 bytes !!!!
2023-09-12 10:49:08,565 DEBUG logging:102 Changing transaction state from "WAITING FOR REPLY" to "PROCESSING REPLY"
2023-09-12 10:49:08,565 DEBUG logging:102 RECV: 
2023-09-12 10:49:08,565 DEBUG logging:102 Processing: 
2023-09-12 10:49:08,565 DEBUG logging:102 Getting transaction 0
2023-09-12 10:49:08,674 DEBUG logging:102 Changing transaction state from "PROCESSING REPLY" to "TRANSACTION_COMPLETE"
2023-09-12 10:49:11,711 DEBUG logging:102 Current transaction state - TRANSACTION_COMPLETE
2023-09-12 10:49:11,711 DEBUG logging:102 Running transaction 6
2023-09-12 10:49:11,711 DEBUG logging:102 SEND: 0x1 0x3 0x4 0x2a 0x0 0x2 0xe4 0xf3
2023-09-12 10:49:11,711 DEBUG logging:102 Changing state to IDLE - Last Frame End - None Current Time stamp - 1694508551.711287
2023-09-12 10:49:11,713 DEBUG logging:102 New Transaction state "SENDING"
2023-09-12 10:49:11,713 DEBUG logging:102 Changing transaction state from "SENDING" to "WAITING FOR REPLY"
2023-09-12 10:49:11,755 DEBUG logging:102 Changing transaction state from "WAITING FOR REPLY" to "PROCESSING REPLY"
2023-09-12 10:49:11,755 DEBUG logging:102 RECV: 0x1 0x3 0x4 0x0 0x0 0x41 0x20 0xcb 0xbb
2023-09-12 10:49:11,755 DEBUG logging:102 Processing: 0x1 0x3 0x4 0x0 0x0 0x41 0x20 0xcb 0xbb
2023-09-12 10:49:11,755 DEBUG logging:102 Getting Frame - 0x3 0x4 0x0 0x0 0x41 0x20
2023-09-12 10:49:11,756 DEBUG logging:102 Factory Response[ReadHoldingRegistersResponse': 3]
2023-09-12 10:49:11,756 DEBUG logging:102 Frame advanced, resetting header!!
2023-09-12 10:49:11,756 DEBUG logging:102 Adding transaction 1
2023-09-12 10:49:11,756 DEBUG logging:102 Getting transaction 1
2023-09-12 10:49:11,756 DEBUG logging:102 Changing transaction state from "PROCESSING REPLY" to "TRANSACTION_COMPLETE"
2023-09-12 10:49:11,756 DEBUG logging:102 [0, 16672]
2023-09-12 10:49:11,756 DEBUG logging:102 handle: [b'A ', b'\x00\x00']
2023-09-12 10:49:11,756 DEBUG logging:102 Current transaction state - TRANSACTION_COMPLETE
2023-09-12 10:49:11,757 DEBUG logging:102 Running transaction 7
2023-09-12 10:49:11,757 DEBUG logging:102 SEND: 0x0 0x10 0x4 0xc 0x0 0x2 0x4 0xe7 0x0 0xff 0xff 0xf2 0xc2
2023-09-12 10:49:11,757 DEBUG logging:102 Changing state to IDLE - Last Frame End - 1694508551.755257 Current Time stamp - 1694508551.757277
2023-09-12 10:49:11,757 DEBUG logging:102 Waiting for 3.5 char before next send - 1.75 ms
2023-09-12 10:49:11,759 DEBUG logging:102 New Transaction state "SENDING"
2023-09-12 10:49:11,759 DEBUG logging:102 Changing transaction state from "SENDING" to "WAITING FOR REPLY"
2023-09-12 10:49:17,775 DEBUG logging:102 No response received, Expected 8 bytes Received 0 bytes !!!!
2023-09-12 10:49:17,775 DEBUG logging:102 Changing transaction state from "WAITING FOR REPLY" to "PROCESSING REPLY"
2023-09-12 10:49:17,775 DEBUG logging:102 RECV: 
2023-09-12 10:49:17,775 DEBUG logging:102 Processing: 
2023-09-12 10:49:17,775 DEBUG logging:102 Getting transaction 0
2023-09-12 10:49:17,884 DEBUG logging:102 Changing transaction state from "PROCESSING REPLY" to "TRANSACTION_COMPLETE"
2023-09-12 10:53:13,555 DEBUG logging:102 Current transaction state - IDLE
2023-09-12 10:53:13,555 DEBUG logging:102 Running transaction 1
2023-09-12 10:53:13,555 DEBUG logging:102 SEND: 0x0 0x10 0x4 0xc 0x0 0x2 0x4 0xc 0x80 0x0 0x0 0xc7 0x7e
2023-09-12 10:53:13,555 DEBUG logging:102 New Transaction state "SENDING"
2023-09-12 10:53:13,555 DEBUG logging:102 Changing transaction state from "SENDING" to "WAITING FOR REPLY"
2023-09-12 10:53:19,706 DEBUG logging:102 Transaction failed. (Modbus Error: [Invalid Message] No response received, expected at least 4 bytes (0 received)) 
2023-09-12 10:53:19,706 DEBUG logging:102 Processing: 
2023-09-12 10:53:19,706 DEBUG logging:102 Getting transaction 0
2023-09-12 10:53:19,706 DEBUG logging:102 Changing transaction state from "PROCESSING REPLY" to "TRANSACTION_COMPLETE"
2023-09-12 10:55:43,863 DEBUG logging:102 Current transaction state - IDLE
2023-09-12 10:55:43,864 DEBUG logging:102 Running transaction 1
2023-09-12 10:55:43,864 DEBUG logging:102 SEND: 0x0 0x10 0x4 0x2a 0x0 0x2 0x4 0x0 0x0 0x40 0x40 0x77 0xc4
2023-09-12 10:55:43,864 DEBUG logging:102 New Transaction state "SENDING"
2023-09-12 10:55:43,864 DEBUG logging:102 Changing transaction state from "SENDING" to "WAITING FOR REPLY"
2023-09-12 10:55:50,006 DEBUG logging:102 Transaction failed. (Modbus Error: [Invalid Message] No response received, expected at least 4 bytes (0 received)) 
2023-09-12 10:55:50,006 DEBUG logging:102 Processing: 
2023-09-12 10:55:50,006 DEBUG logging:102 Getting transaction 0
2023-09-12 10:55:50,006 DEBUG logging:102 Changing transaction state from "PROCESSING REPLY" to "TRANSACTION_COMPLETE"
2023-09-12 10:55:50,042 DEBUG logging:102 Current transaction state - TRANSACTION_COMPLETE
2023-09-12 10:55:50,042 DEBUG logging:102 Running transaction 2
2023-09-12 10:55:50,042 DEBUG logging:102 SEND: 0x1 0x3 0x4 0x2a 0x0 0x2 0xe4 0xf3
2023-09-12 10:55:50,042 DEBUG logging:102 Changing state to IDLE - Last Frame End - None Current Time stamp - 1694508950.04249
2023-09-12 10:55:50,045 DEBUG logging:102 New Transaction state "SENDING"
2023-09-12 10:55:50,045 DEBUG logging:102 Changing transaction state from "SENDING" to "WAITING FOR REPLY"
2023-09-12 10:55:50,086 DEBUG logging:102 Changing transaction state from "WAITING FOR REPLY" to "PROCESSING REPLY"
2023-09-12 10:55:50,086 DEBUG logging:102 RECV: 0x1 0x3 0x4 0x0 0x0 0x40 0x40 0xca 0x3
2023-09-12 10:55:50,086 DEBUG logging:102 Processing: 0x1 0x3 0x4 0x0 0x0 0x40 0x40 0xca 0x3
2023-09-12 10:55:50,086 DEBUG logging:102 Getting Frame - 0x3 0x4 0x0 0x0 0x40 0x40
2023-09-12 10:55:50,087 DEBUG logging:102 Factory Response[ReadHoldingRegistersResponse': 3]
2023-09-12 10:55:50,087 DEBUG logging:102 Frame advanced, resetting header!!
2023-09-12 10:55:50,087 DEBUG logging:102 Adding transaction 1
2023-09-12 10:55:50,087 DEBUG logging:102 Getting transaction 1
2023-09-12 10:55:50,087 DEBUG logging:102 Changing transaction state from "PROCESSING REPLY" to "TRANSACTION_COMPLETE"
2023-09-12 10:55:50,087 DEBUG logging:102 [0, 16448]
2023-09-12 10:55:50,087 DEBUG logging:102 handle: [b'@@', b'\x00\x00']
2023-09-12 10:55:50,087 DEBUG logging:102 Current transaction state - TRANSACTION_COMPLETE
2023-09-12 10:55:50,087 DEBUG logging:102 Running transaction 3
2023-09-12 10:55:50,087 DEBUG logging:102 SEND: 0x0 0x10 0x4 0x12 0x0 0x2 0x4 0x12 0xae 0x0 0x0 0x21 0xdf
2023-09-12 10:55:50,087 DEBUG logging:102 Changing state to IDLE - Last Frame End - 1694508950.086379 Current Time stamp - 1694508950.087387
2023-09-12 10:55:50,087 DEBUG logging:102 Waiting for 3.5 char before next send - 1.75 ms
2023-09-12 10:55:50,090 DEBUG logging:102 New Transaction state "SENDING"
2023-09-12 10:55:50,091 DEBUG logging:102 Changing transaction state from "SENDING" to "WAITING FOR REPLY"
2023-09-12 10:55:56,107 DEBUG logging:102 No response received, Expected 8 bytes Received 0 bytes !!!!
2023-09-12 10:55:56,108 DEBUG logging:102 Changing transaction state from "WAITING FOR REPLY" to "PROCESSING REPLY"
2023-09-12 10:55:56,108 DEBUG logging:102 RECV: 
2023-09-12 10:55:56,108 DEBUG logging:102 Processing: 
2023-09-12 10:55:56,108 DEBUG logging:102 Getting transaction 0
2023-09-12 10:55:56,215 DEBUG logging:102 Changing transaction state from "PROCESSING REPLY" to "TRANSACTION_COMPLETE"
2023-09-12 10:55:56,257 DEBUG logging:102 Current transaction state - TRANSACTION_COMPLETE
2023-09-12 10:55:56,257 DEBUG logging:102 Running transaction 4
2023-09-12 10:55:56,257 DEBUG logging:102 SEND: 0x1 0x3 0x4 0x2a 0x0 0x2 0xe4 0xf3
2023-09-12 10:55:56,257 DEBUG logging:102 Changing state to IDLE - Last Frame End - None Current Time stamp - 1694508956.257475
2023-09-12 10:55:56,260 DEBUG logging:102 New Transaction state "SENDING"
2023-09-12 10:55:56,260 DEBUG logging:102 Changing transaction state from "SENDING" to "WAITING FOR REPLY"
2023-09-12 10:55:56,301 DEBUG logging:102 Changing transaction state from "WAITING FOR REPLY" to "PROCESSING REPLY"
2023-09-12 10:55:56,301 DEBUG logging:102 RECV: 0x1 0x3 0x4 0x0 0x0 0x40 0x40 0xca 0x3
2023-09-12 10:55:56,301 DEBUG logging:102 Processing: 0x1 0x3 0x4 0x0 0x0 0x40 0x40 0xca 0x3
2023-09-12 10:55:56,301 DEBUG logging:102 Getting Frame - 0x3 0x4 0x0 0x0 0x40 0x40
2023-09-12 10:55:56,301 DEBUG logging:102 Factory Response[ReadHoldingRegistersResponse': 3]
2023-09-12 10:55:56,302 DEBUG logging:102 Frame advanced, resetting header!!
2023-09-12 10:55:56,302 DEBUG logging:102 Adding transaction 1
2023-09-12 10:55:56,302 DEBUG logging:102 Getting transaction 1
2023-09-12 10:55:56,302 DEBUG logging:102 Changing transaction state from "PROCESSING REPLY" to "TRANSACTION_COMPLETE"
2023-09-12 10:55:56,302 DEBUG logging:102 [0, 16448]
2023-09-12 10:55:56,302 DEBUG logging:102 handle: [b'@@', b'\x00\x00']
2023-09-12 10:55:58,303 DEBUG logging:102 Current transaction state - TRANSACTION_COMPLETE
2023-09-12 10:55:58,303 DEBUG logging:102 Running transaction 5
2023-09-12 10:55:58,303 DEBUG logging:102 SEND: 0x0 0x10 0x4 0x2a 0x0 0x2 0x4 0x0 0x0 0x41 0x20 0x76 0x7c
2023-09-12 10:55:58,303 DEBUG logging:102 Changing state to IDLE - Last Frame End - 1694508956.301621 Current Time stamp - 1694508958.303505
2023-09-12 10:55:58,303 DEBUG logging:102 New Transaction state "SENDING"
2023-09-12 10:55:58,304 DEBUG logging:102 Changing transaction state from "SENDING" to "WAITING FOR REPLY"
2023-09-12 10:56:04,311 DEBUG logging:102 No response received, Expected 8 bytes Received 0 bytes !!!!
2023-09-12 10:56:04,311 DEBUG logging:102 Changing transaction state from "WAITING FOR REPLY" to "PROCESSING REPLY"
2023-09-12 10:56:04,311 DEBUG logging:102 RECV: 
2023-09-12 10:56:04,311 DEBUG logging:102 Processing: 
2023-09-12 10:56:04,311 DEBUG logging:102 Getting transaction 0
2023-09-12 10:56:04,435 DEBUG logging:102 Changing transaction state from "PROCESSING REPLY" to "TRANSACTION_COMPLETE"
2023-09-12 10:56:07,476 DEBUG logging:102 Current transaction state - TRANSACTION_COMPLETE
2023-09-12 10:56:07,477 DEBUG logging:102 Running transaction 6
2023-09-12 10:56:07,477 DEBUG logging:102 SEND: 0x1 0x3 0x4 0x2a 0x0 0x2 0xe4 0xf3
2023-09-12 10:56:07,477 DEBUG logging:102 Changing state to IDLE - Last Frame End - None Current Time stamp - 1694508967.477622
2023-09-12 10:56:07,479 DEBUG logging:102 New Transaction state "SENDING"
2023-09-12 10:56:07,479 DEBUG logging:102 Changing transaction state from "SENDING" to "WAITING FOR REPLY"
2023-09-12 10:56:07,521 DEBUG logging:102 Changing transaction state from "WAITING FOR REPLY" to "PROCESSING REPLY"
2023-09-12 10:56:07,521 DEBUG logging:102 RECV: 0x1 0x3 0x4 0x0 0x0 0x41 0x20 0xcb 0xbb
2023-09-12 10:56:07,521 DEBUG logging:102 Processing: 0x1 0x3 0x4 0x0 0x0 0x41 0x20 0xcb 0xbb
2023-09-12 10:56:07,521 DEBUG logging:102 Getting Frame - 0x3 0x4 0x0 0x0 0x41 0x20
2023-09-12 10:56:07,521 DEBUG logging:102 Factory Response[ReadHoldingRegistersResponse': 3]
2023-09-12 10:56:07,521 DEBUG logging:102 Frame advanced, resetting header!!
2023-09-12 10:56:07,521 DEBUG logging:102 Adding transaction 1
2023-09-12 10:56:07,521 DEBUG logging:102 Getting transaction 1
2023-09-12 10:56:07,521 DEBUG logging:102 Changing transaction state from "PROCESSING REPLY" to "TRANSACTION_COMPLETE"
2023-09-12 10:56:07,522 DEBUG logging:102 [0, 16672]
2023-09-12 10:56:07,522 DEBUG logging:102 handle: [b'A ', b'\x00\x00']
2023-09-12 10:56:07,522 DEBUG logging:102 Current transaction state - TRANSACTION_COMPLETE
2023-09-12 10:56:07,522 DEBUG logging:102 Running transaction 7
2023-09-12 10:56:07,522 DEBUG logging:102 SEND: 0x0 0x10 0x4 0x12 0x0 0x2 0x4 0x3e 0x5d 0x0 0x0 0xd9 0x7c
2023-09-12 10:56:07,522 DEBUG logging:102 Changing state to IDLE - Last Frame End - 1694508967.521216 Current Time stamp - 1694508967.522733
2023-09-12 10:56:07,522 DEBUG logging:102 Waiting for 3.5 char before next send - 1.75 ms
2023-09-12 10:56:07,525 DEBUG logging:102 New Transaction state "SENDING"
2023-09-12 10:56:07,525 DEBUG logging:102 Changing transaction state from "SENDING" to "WAITING FOR REPLY"
2023-09-12 10:56:13,538 DEBUG logging:102 No response received, Expected 8 bytes Received 0 bytes !!!!
2023-09-12 10:56:13,539 DEBUG logging:102 Changing transaction state from "WAITING FOR REPLY" to "PROCESSING REPLY"
2023-09-12 10:56:13,539 DEBUG logging:102 RECV: 
2023-09-12 10:56:13,539 DEBUG logging:102 Processing: 
2023-09-12 10:56:13,539 DEBUG logging:102 Getting transaction 0
2023-09-12 10:56:13,663 DEBUG logging:102 Changing transaction state from "PROCESSING REPLY" to "TRANSACTION_COMPLETE"
2023-09-12 10:56:15,708 DEBUG logging:102 Current transaction state - TRANSACTION_COMPLETE
2023-09-12 10:56:15,708 DEBUG logging:102 Running transaction 8
2023-09-12 10:56:15,708 DEBUG logging:102 SEND: 0x0 0x10 0x4 0xc 0x0 0x2 0x4 0xe7 0x0 0xff 0xff 0xf2 0xc2
2023-09-12 10:56:15,708 DEBUG logging:102 Changing state to IDLE - Last Frame End - None Current Time stamp - 1694508975.708555
2023-09-12 10:56:15,711 DEBUG logging:102 New Transaction state "SENDING"
2023-09-12 10:56:15,711 DEBUG logging:102 Changing transaction state from "SENDING" to "WAITING FOR REPLY"
2023-09-12 10:56:21,730 DEBUG logging:102 No response received, Expected 8 bytes Received 0 bytes !!!!
2023-09-12 10:56:21,730 DEBUG logging:102 Changing transaction state from "WAITING FOR REPLY" to "PROCESSING REPLY"
2023-09-12 10:56:21,730 DEBUG logging:102 RECV: 
2023-09-12 10:56:21,730 DEBUG logging:102 Processing: 
2023-09-12 10:56:21,730 DEBUG logging:102 Getting transaction 0
2023-09-12 10:56:21,854 DEBUG logging:102 Changing transaction state from "PROCESSING REPLY" to "TRANSACTION_COMPLETE"
2023-09-12 10:56:31,007 DEBUG logging:102 Current transaction state - IDLE
2023-09-12 10:56:31,007 DEBUG logging:102 Running transaction 1
2023-09-12 10:56:31,007 DEBUG logging:102 SEND: 0x0 0x10 0x4 0x2a 0x0 0x2 0x4 0x0 0x0 0x40 0x40 0x77 0xc4
2023-09-12 10:56:31,007 DEBUG logging:102 New Transaction state "SENDING"
2023-09-12 10:56:31,007 DEBUG logging:102 Changing transaction state from "SENDING" to "WAITING FOR REPLY"
2023-09-12 10:56:37,160 DEBUG logging:102 Transaction failed. (Modbus Error: [Invalid Message] No response received, expected at least 4 bytes (0 received)) 
2023-09-12 10:56:37,160 DEBUG logging:102 Processing: 
2023-09-12 10:56:37,160 DEBUG logging:102 Getting transaction 0
2023-09-12 10:56:37,160 DEBUG logging:102 Changing transaction state from "PROCESSING REPLY" to "TRANSACTION_COMPLETE"
2023-09-12 10:56:37,196 DEBUG logging:102 Current transaction state - TRANSACTION_COMPLETE
2023-09-12 10:56:37,196 DEBUG logging:102 Running transaction 2
2023-09-12 10:56:37,196 DEBUG logging:102 SEND: 0x1 0x3 0x4 0x2a 0x0 0x2 0xe4 0xf3
2023-09-12 10:56:37,196 DEBUG logging:102 Changing state to IDLE - Last Frame End - None Current Time stamp - 1694508997.196946
2023-09-12 10:56:37,199 DEBUG logging:102 New Transaction state "SENDING"
2023-09-12 10:56:37,199 DEBUG logging:102 Changing transaction state from "SENDING" to "WAITING FOR REPLY"
2023-09-12 10:56:37,240 DEBUG logging:102 Changing transaction state from "WAITING FOR REPLY" to "PROCESSING REPLY"
2023-09-12 10:56:37,240 DEBUG logging:102 RECV: 0x1 0x3 0x4 0x0 0x0 0x40 0x40 0xca 0x3
2023-09-12 10:56:37,240 DEBUG logging:102 Processing: 0x1 0x3 0x4 0x0 0x0 0x40 0x40 0xca 0x3
2023-09-12 10:56:37,240 DEBUG logging:102 Getting Frame - 0x3 0x4 0x0 0x0 0x40 0x40
2023-09-12 10:56:37,241 DEBUG logging:102 Factory Response[ReadHoldingRegistersResponse': 3]
2023-09-12 10:56:37,241 DEBUG logging:102 Frame advanced, resetting header!!
2023-09-12 10:56:37,241 DEBUG logging:102 Adding transaction 1
2023-09-12 10:56:37,241 DEBUG logging:102 Getting transaction 1
2023-09-12 10:56:37,241 DEBUG logging:102 Changing transaction state from "PROCESSING REPLY" to "TRANSACTION_COMPLETE"
2023-09-12 10:56:37,241 DEBUG logging:102 [0, 16448]
2023-09-12 10:56:37,241 DEBUG logging:102 handle: [b'@@', b'\x00\x00']
2023-09-12 10:56:37,241 DEBUG logging:102 Current transaction state - TRANSACTION_COMPLETE
2023-09-12 10:56:37,241 DEBUG logging:102 Running transaction 3
2023-09-12 10:56:37,241 DEBUG logging:102 SEND: 0x0 0x10 0x4 0x12 0x0 0x2 0x4 0x12 0xae 0x0 0x0 0x21 0xdf
2023-09-12 10:56:37,241 DEBUG logging:102 Changing state to IDLE - Last Frame End - 1694508997.240169 Current Time stamp - 1694508997.241205
2023-09-12 10:56:37,241 DEBUG logging:102 Waiting for 3.5 char before next send - 1.75 ms
2023-09-12 10:56:37,244 DEBUG logging:102 New Transaction state "SENDING"
2023-09-12 10:56:37,244 DEBUG logging:102 Changing transaction state from "SENDING" to "WAITING FOR REPLY"
2023-09-12 10:56:43,268 DEBUG logging:102 No response received, Expected 8 bytes Received 0 bytes !!!!
2023-09-12 10:56:43,268 DEBUG logging:102 Changing transaction state from "WAITING FOR REPLY" to "PROCESSING REPLY"
2023-09-12 10:56:43,268 DEBUG logging:102 RECV: 
2023-09-12 10:56:43,268 DEBUG logging:102 Processing: 
2023-09-12 10:56:43,269 DEBUG logging:102 Getting transaction 0
2023-09-12 10:56:43,390 DEBUG logging:102 Changing transaction state from "PROCESSING REPLY" to "TRANSACTION_COMPLETE"
2023-09-12 10:56:43,425 DEBUG logging:102 Current transaction state - TRANSACTION_COMPLETE
2023-09-12 10:56:43,425 DEBUG logging:102 Running transaction 4
2023-09-12 10:56:43,425 DEBUG logging:102 SEND: 0x1 0x3 0x4 0x2a 0x0 0x2 0xe4 0xf3
2023-09-12 10:56:43,425 DEBUG logging:102 Changing state to IDLE - Last Frame End - None Current Time stamp - 1694509003.425416
2023-09-12 10:56:43,427 DEBUG logging:102 New Transaction state "SENDING"
2023-09-12 10:56:43,427 DEBUG logging:102 Changing transaction state from "SENDING" to "WAITING FOR REPLY"
2023-09-12 10:56:43,469 DEBUG logging:102 Changing transaction state from "WAITING FOR REPLY" to "PROCESSING REPLY"
2023-09-12 10:56:43,469 DEBUG logging:102 RECV: 0x1 0x3 0x4 0x0 0x0 0x40 0x40 0xca 0x3
2023-09-12 10:56:43,469 DEBUG logging:102 Processing: 0x1 0x3 0x4 0x0 0x0 0x40 0x40 0xca 0x3
2023-09-12 10:56:43,469 DEBUG logging:102 Getting Frame - 0x3 0x4 0x0 0x0 0x40 0x40
2023-09-12 10:56:43,469 DEBUG logging:102 Factory Response[ReadHoldingRegistersResponse': 3]
2023-09-12 10:56:43,469 DEBUG logging:102 Frame advanced, resetting header!!
2023-09-12 10:56:43,469 DEBUG logging:102 Adding transaction 1
2023-09-12 10:56:43,469 DEBUG logging:102 Getting transaction 1
2023-09-12 10:56:43,469 DEBUG logging:102 Changing transaction state from "PROCESSING REPLY" to "TRANSACTION_COMPLETE"
2023-09-12 10:56:43,470 DEBUG logging:102 [0, 16448]
2023-09-12 10:56:43,470 DEBUG logging:102 handle: [b'@@', b'\x00\x00']
2023-09-12 10:56:45,470 DEBUG logging:102 Current transaction state - TRANSACTION_COMPLETE
2023-09-12 10:56:45,470 DEBUG logging:102 Running transaction 5
2023-09-12 10:56:45,470 DEBUG logging:102 SEND: 0x0 0x10 0x4 0x2a 0x0 0x2 0x4 0x0 0x0 0x41 0x20 0x76 0x7c
2023-09-12 10:56:45,471 DEBUG logging:102 Changing state to IDLE - Last Frame End - 1694509003.469027 Current Time stamp - 1694509005.471317
2023-09-12 10:56:45,471 DEBUG logging:102 New Transaction state "SENDING"
2023-09-12 10:56:45,471 DEBUG logging:102 Changing transaction state from "SENDING" to "WAITING FOR REPLY"
2023-09-12 10:56:51,485 DEBUG logging:102 No response received, Expected 8 bytes Received 0 bytes !!!!
2023-09-12 10:56:51,485 DEBUG logging:102 Changing transaction state from "WAITING FOR REPLY" to "PROCESSING REPLY"
2023-09-12 10:56:51,485 DEBUG logging:102 RECV: 
2023-09-12 10:56:51,485 DEBUG logging:102 Processing: 
2023-09-12 10:56:51,485 DEBUG logging:102 Getting transaction 0
2023-09-12 10:56:51,594 DEBUG logging:102 Changing transaction state from "PROCESSING REPLY" to "TRANSACTION_COMPLETE"
2023-09-12 10:56:54,630 DEBUG logging:102 Current transaction state - TRANSACTION_COMPLETE
2023-09-12 10:56:54,630 DEBUG logging:102 Running transaction 6
2023-09-12 10:56:54,630 DEBUG logging:102 SEND: 0x1 0x3 0x4 0x2a 0x0 0x2 0xe4 0xf3
2023-09-12 10:56:54,630 DEBUG logging:102 Changing state to IDLE - Last Frame End - None Current Time stamp - 1694509014.630467
2023-09-12 10:56:54,633 DEBUG logging:102 New Transaction state "SENDING"
2023-09-12 10:56:54,633 DEBUG logging:102 Changing transaction state from "SENDING" to "WAITING FOR REPLY"
2023-09-12 10:56:54,674 DEBUG logging:102 Changing transaction state from "WAITING FOR REPLY" to "PROCESSING REPLY"
2023-09-12 10:56:54,674 DEBUG logging:102 RECV: 0x1 0x3 0x4 0x0 0x0 0x41 0x20 0xcb 0xbb
2023-09-12 10:56:54,674 DEBUG logging:102 Processing: 0x1 0x3 0x4 0x0 0x0 0x41 0x20 0xcb 0xbb
2023-09-12 10:56:54,675 DEBUG logging:102 Getting Frame - 0x3 0x4 0x0 0x0 0x41 0x20
2023-09-12 10:56:54,675 DEBUG logging:102 Factory Response[ReadHoldingRegistersResponse': 3]
2023-09-12 10:56:54,675 DEBUG logging:102 Frame advanced, resetting header!!
2023-09-12 10:56:54,675 DEBUG logging:102 Adding transaction 1
2023-09-12 10:56:54,675 DEBUG logging:102 Getting transaction 1
2023-09-12 10:56:54,675 DEBUG logging:102 Changing transaction state from "PROCESSING REPLY" to "TRANSACTION_COMPLETE"
2023-09-12 10:56:54,675 DEBUG logging:102 [0, 16672]
2023-09-12 10:56:54,675 DEBUG logging:102 handle: [b'A ', b'\x00\x00']
2023-09-12 10:56:54,675 DEBUG logging:102 Current transaction state - TRANSACTION_COMPLETE
2023-09-12 10:56:54,675 DEBUG logging:102 Running transaction 7
2023-09-12 10:56:54,675 DEBUG logging:102 SEND: 0x0 0x10 0x4 0x12 0x0 0x2 0x4 0x3e 0x5d 0x0 0x0 0xd9 0x7c
2023-09-12 10:56:54,675 DEBUG logging:102 Changing state to IDLE - Last Frame End - 1694509014.674685 Current Time stamp - 1694509014.675707
2023-09-12 10:56:54,675 DEBUG logging:102 Waiting for 3.5 char before next send - 1.75 ms
2023-09-12 10:56:54,678 DEBUG logging:102 New Transaction state "SENDING"
2023-09-12 10:56:54,679 DEBUG logging:102 Changing transaction state from "SENDING" to "WAITING FOR REPLY"
2023-09-12 10:57:00,694 DEBUG logging:102 No response received, Expected 8 bytes Received 0 bytes !!!!
2023-09-12 10:57:00,694 DEBUG logging:102 Changing transaction state from "WAITING FOR REPLY" to "PROCESSING REPLY"
2023-09-12 10:57:00,694 DEBUG logging:102 RECV: 
2023-09-12 10:57:00,694 DEBUG logging:102 Processing: 
2023-09-12 10:57:00,694 DEBUG logging:102 Getting transaction 0
2023-09-12 10:57:00,802 DEBUG logging:102 Changing transaction state from "PROCESSING REPLY" to "TRANSACTION_COMPLETE"
2023-09-12 10:57:02,841 DEBUG logging:102 Current transaction state - TRANSACTION_COMPLETE
2023-09-12 10:57:02,841 DEBUG logging:102 Running transaction 8
2023-09-12 10:57:02,841 DEBUG logging:102 SEND: 0x0 0x10 0x4 0xc 0x0 0x2 0x4 0xe7 0x0 0xff 0xff 0xf2 0xc2
2023-09-12 10:57:02,841 DEBUG logging:102 Changing state to IDLE - Last Frame End - None Current Time stamp - 1694509022.841373
2023-09-12 10:57:02,844 DEBUG logging:102 New Transaction state "SENDING"
2023-09-12 10:57:02,844 DEBUG logging:102 Changing transaction state from "SENDING" to "WAITING FOR REPLY"
2023-09-12 10:57:08,868 DEBUG logging:102 No response received, Expected 8 bytes Received 0 bytes !!!!
2023-09-12 10:57:08,868 DEBUG logging:102 Changing transaction state from "WAITING FOR REPLY" to "PROCESSING REPLY"
2023-09-12 10:57:08,868 DEBUG logging:102 RECV: 
2023-09-12 10:57:08,869 DEBUG logging:102 Processing: 
2023-09-12 10:57:08,869 DEBUG logging:102 Getting transaction 0
2023-09-12 10:57:08,993 DEBUG logging:102 Changing transaction state from "PROCESSING REPLY" to "TRANSACTION_COMPLETE"
2023-09-12 11:14:26,240 DEBUG logging:102 Current transaction state - IDLE
2023-09-12 11:14:26,240 DEBUG logging:102 Running transaction 1
2023-09-12 11:14:26,240 DEBUG logging:102 SEND: 0x1 0x3 0x4 0x2 0x0 0x2 0x64 0xfb
2023-09-12 11:14:26,240 DEBUG logging:102 New Transaction state "SENDING"
2023-09-12 11:14:26,241 DEBUG logging:102 Changing transaction state from "SENDING" to "WAITING FOR REPLY"
2023-09-12 11:14:26,283 DEBUG logging:102 Changing transaction state from "WAITING FOR REPLY" to "PROCESSING REPLY"
2023-09-12 11:14:26,283 DEBUG logging:102 RECV: 0x1 0x3 0x4 0xfa 0x0 0x0 0x0 0xca 0xeb
2023-09-12 11:14:26,283 DEBUG logging:102 Processing: 0x1 0x3 0x4 0xfa 0x0 0x0 0x0 0xca 0xeb
2023-09-12 11:14:26,283 DEBUG logging:102 Getting Frame - 0x3 0x4 0xfa 0x0 0x0 0x0
2023-09-12 11:14:26,283 DEBUG logging:102 Factory Response[ReadHoldingRegistersResponse': 3]
2023-09-12 11:14:26,283 DEBUG logging:102 Frame advanced, resetting header!!
2023-09-12 11:14:26,283 DEBUG logging:102 Adding transaction 1
2023-09-12 11:14:26,283 DEBUG logging:102 Getting transaction 1
2023-09-12 11:14:26,283 DEBUG logging:102 Changing transaction state from "PROCESSING REPLY" to "TRANSACTION_COMPLETE"
2023-09-12 11:14:26,284 DEBUG logging:102 [64000, 0]
2023-09-12 11:14:26,284 DEBUG logging:102 handle: [b'\x00\x00', b'\xfa\x00']
2023-09-12 11:16:05,751 DEBUG logging:102 Current transaction state - IDLE
2023-09-12 11:16:05,751 DEBUG logging:102 Running transaction 1
2023-09-12 11:16:05,751 DEBUG logging:102 SEND: 0x1 0x3 0x4 0x2 0x0 0x2 0x64 0xfb
2023-09-12 11:16:05,751 DEBUG logging:102 New Transaction state "SENDING"
2023-09-12 11:16:05,752 DEBUG logging:102 Changing transaction state from "SENDING" to "WAITING FOR REPLY"
2023-09-12 11:16:05,792 DEBUG logging:102 Changing transaction state from "WAITING FOR REPLY" to "PROCESSING REPLY"
2023-09-12 11:16:05,792 DEBUG logging:102 RECV: 0x1 0x3 0x4 0xfa 0x0 0x0 0x0 0xca 0xeb
2023-09-12 11:16:05,792 DEBUG logging:102 Processing: 0x1 0x3 0x4 0xfa 0x0 0x0 0x0 0xca 0xeb
2023-09-12 11:16:05,792 DEBUG logging:102 Getting Frame - 0x3 0x4 0xfa 0x0 0x0 0x0
2023-09-12 11:16:05,793 DEBUG logging:102 Factory Response[ReadHoldingRegistersResponse': 3]
2023-09-12 11:16:05,793 DEBUG logging:102 Frame advanced, resetting header!!
