2023-09-06 21:17:42,228 DEBUG logging:102 Current transaction state - IDLE
2023-09-06 21:17:42,228 DEBUG logging:102 Running transaction 1
2023-09-06 21:17:42,228 DEBUG logging:102 SEND: 0x1 0x5 0x7 0xd0 0xff 0x0 0x8c 0xb7
2023-09-06 21:17:42,228 DEBUG logging:102 New Transaction state "SENDING"
2023-09-06 21:17:42,228 DEBUG logging:102 Changing transaction state from "SENDING" to "WAITING FOR REPLY"
2023-09-06 21:17:42,269 DEBUG logging:102 Changing transaction state from "WAITING FOR REPLY" to "PROCESSING REPLY"
2023-09-06 21:17:42,269 DEBUG logging:102 RECV: 0x1 0x5 0x7 0xd0 0xff 0x0 0x8c 0xb7
2023-09-06 21:17:42,269 DEBUG logging:102 Processing: 0x1 0x5 0x7 0xd0 0xff 0x0 0x8c 0xb7
2023-09-06 21:17:42,269 DEBUG logging:102 Getting Frame - 0x5 0x7 0xd0 0xff 0x0
2023-09-06 21:17:42,269 DEBUG logging:102 Factory Response[WriteSingleCoilResponse': 5]
2023-09-06 21:17:42,270 DEBUG logging:102 Frame advanced, resetting header!!
2023-09-06 21:17:42,270 DEBUG logging:102 Adding transaction 1
2023-09-06 21:17:42,270 DEBUG logging:102 Getting transaction 1
2023-09-06 21:17:42,270 DEBUG logging:102 Changing transaction state from "PROCESSING REPLY" to "TRANSACTION_COMPLETE"
2023-09-06 21:17:44,270 DEBUG logging:102 Current transaction state - TRANSACTION_COMPLETE
2023-09-06 21:17:44,270 DEBUG logging:102 Running transaction 2
2023-09-06 21:17:44,270 DEBUG logging:102 SEND: 0x1 0x3 0x3 0xea 0x0 0x1 0xa5 0xba
2023-09-06 21:17:44,270 DEBUG logging:102 Changing state to IDLE - Last Frame End - 1694027862.269591 Current Time stamp - 1694027864.270995
2023-09-06 21:17:44,270 DEBUG logging:102 New Transaction state "SENDING"
2023-09-06 21:17:44,270 DEBUG logging:102 Changing transaction state from "SENDING" to "WAITING FOR REPLY"
2023-09-06 21:17:44,312 DEBUG logging:102 Changing transaction state from "WAITING FOR REPLY" to "PROCESSING REPLY"
2023-09-06 21:17:44,312 DEBUG logging:102 RECV: 0x1 0x3 0x2 0x0 0x4 0xb9 0x87
2023-09-06 21:17:44,312 DEBUG logging:102 Processing: 0x1 0x3 0x2 0x0 0x4 0xb9 0x87
2023-09-06 21:17:44,312 DEBUG logging:102 Getting Frame - 0x3 0x2 0x0 0x4
2023-09-06 21:17:44,312 DEBUG logging:102 Factory Response[ReadHoldingRegistersResponse': 3]
2023-09-06 21:17:44,312 DEBUG logging:102 Frame advanced, resetting header!!
2023-09-06 21:17:44,312 DEBUG logging:102 Adding transaction 1
2023-09-06 21:17:44,312 DEBUG logging:102 Getting transaction 1
2023-09-06 21:17:44,312 DEBUG logging:102 Changing transaction state from "PROCESSING REPLY" to "TRANSACTION_COMPLETE"
2023-09-06 21:17:44,312 DEBUG logging:102 Current transaction state - TRANSACTION_COMPLETE
2023-09-06 21:17:44,312 DEBUG logging:102 Running transaction 3
2023-09-06 21:17:44,312 DEBUG logging:102 SEND: 0x0 0x10 0x4 0x12 0x0 0x2 0x4 0x0 0x0 0x0 0x1 0x84 0x86
2023-09-06 21:17:44,312 DEBUG logging:102 Changing state to IDLE - Last Frame End - 1694027864.312068 Current Time stamp - 1694027864.312569
2023-09-06 21:17:44,312 DEBUG logging:102 Waiting for 3.5 char before next send - 1.75 ms
2023-09-06 21:17:44,315 DEBUG logging:102 New Transaction state "SENDING"
2023-09-06 21:17:44,315 DEBUG logging:102 Changing transaction state from "SENDING" to "WAITING FOR REPLY"
2023-09-06 21:17:50,448 DEBUG logging:102 Transaction failed. (Modbus Error: [Invalid Message] No response received, expected at least 4 bytes (0 received)) 
2023-09-06 21:17:50,448 DEBUG logging:102 Processing: 
2023-09-06 21:17:50,448 DEBUG logging:102 Getting transaction 0
2023-09-06 21:17:50,448 DEBUG logging:102 Changing transaction state from "PROCESSING REPLY" to "TRANSACTION_COMPLETE"
2023-09-06 21:17:52,459 DEBUG logging:102 Current transaction state - TRANSACTION_COMPLETE
2023-09-06 21:17:52,459 DEBUG logging:102 Running transaction 4
2023-09-06 21:17:52,460 DEBUG logging:102 SEND: 0x1 0x3 0x3 0xea 0x0 0x1 0xa5 0xba
2023-09-06 21:17:52,460 DEBUG logging:102 Changing state to IDLE - Last Frame End - None Current Time stamp - 1694027872.460472
2023-09-06 21:17:52,462 DEBUG logging:102 New Transaction state "SENDING"
2023-09-06 21:17:52,462 DEBUG logging:102 Changing transaction state from "SENDING" to "WAITING FOR REPLY"
2023-09-06 21:17:52,503 DEBUG logging:102 Changing transaction state from "WAITING FOR REPLY" to "PROCESSING REPLY"
2023-09-06 21:17:52,503 DEBUG logging:102 RECV: 0x1 0x3 0x2 0x0 0xa 0x38 0x43
2023-09-06 21:17:52,503 DEBUG logging:102 Processing: 0x1 0x3 0x2 0x0 0xa 0x38 0x43
2023-09-06 21:17:52,503 DEBUG logging:102 Getting Frame - 0x3 0x2 0x0 0xa
2023-09-06 21:17:52,503 DEBUG logging:102 Factory Response[ReadHoldingRegistersResponse': 3]
2023-09-06 21:17:52,503 DEBUG logging:102 Frame advanced, resetting header!!
2023-09-06 21:17:52,503 DEBUG logging:102 Adding transaction 1
2023-09-06 21:17:52,503 DEBUG logging:102 Getting transaction 1
2023-09-06 21:17:52,504 DEBUG logging:102 Changing transaction state from "PROCESSING REPLY" to "TRANSACTION_COMPLETE"
2023-09-06 21:17:52,504 DEBUG logging:102 Current transaction state - TRANSACTION_COMPLETE
2023-09-06 21:17:52,504 DEBUG logging:102 Running transaction 5
2023-09-06 21:17:52,504 DEBUG logging:102 SEND: 0x1 0x3 0x3 0xea 0x0 0x1 0xa5 0xba
2023-09-06 21:17:52,504 DEBUG logging:102 Changing state to IDLE - Last Frame End - 1694027872.503711 Current Time stamp - 1694027872.504215
2023-09-06 21:17:52,504 DEBUG logging:102 Waiting for 3.5 char before next send - 1.75 ms
2023-09-06 21:17:52,506 DEBUG logging:102 New Transaction state "SENDING"
2023-09-06 21:17:52,506 DEBUG logging:102 Changing transaction state from "SENDING" to "WAITING FOR REPLY"
2023-09-06 21:17:52,547 DEBUG logging:102 Changing transaction state from "WAITING FOR REPLY" to "PROCESSING REPLY"
2023-09-06 21:17:52,547 DEBUG logging:102 RECV: 0x1 0x3 0x2 0x0 0xa 0x38 0x43
2023-09-06 21:17:52,547 DEBUG logging:102 Processing: 0x1 0x3 0x2 0x0 0xa 0x38 0x43
2023-09-06 21:17:52,547 DEBUG logging:102 Getting Frame - 0x3 0x2 0x0 0xa
2023-09-06 21:17:52,547 DEBUG logging:102 Factory Response[ReadHoldingRegistersResponse': 3]
2023-09-06 21:17:52,547 DEBUG logging:102 Frame advanced, resetting header!!
2023-09-06 21:17:52,547 DEBUG logging:102 Adding transaction 1
2023-09-06 21:17:52,547 DEBUG logging:102 Getting transaction 1
2023-09-06 21:17:52,547 DEBUG logging:102 Changing transaction state from "PROCESSING REPLY" to "TRANSACTION_COMPLETE"
2023-09-06 21:17:52,547 DEBUG logging:102 Current transaction state - TRANSACTION_COMPLETE
2023-09-06 21:17:52,547 DEBUG logging:102 Running transaction 6
2023-09-06 21:17:52,547 DEBUG logging:102 SEND: 0x0 0x10 0x4 0x12 0x0 0x2 0x4 0x0 0x0 0x0 0x0 0x45 0x46
2023-09-06 21:17:52,547 DEBUG logging:102 Changing state to IDLE - Last Frame End - 1694027872.547494 Current Time stamp - 1694027872.547993
2023-09-06 21:17:52,547 DEBUG logging:102 Waiting for 3.5 char before next send - 1.75 ms
2023-09-06 21:17:52,550 DEBUG logging:102 New Transaction state "SENDING"
2023-09-06 21:17:52,550 DEBUG logging:102 Changing transaction state from "SENDING" to "WAITING FOR REPLY"
2023-09-06 21:17:58,568 DEBUG logging:102 No response received, Expected 8 bytes Received 0 bytes !!!!
2023-09-06 21:17:58,568 DEBUG logging:102 Changing transaction state from "WAITING FOR REPLY" to "PROCESSING REPLY"
2023-09-06 21:17:58,568 DEBUG logging:102 RECV: 
2023-09-06 21:17:58,569 DEBUG logging:102 Processing: 
2023-09-06 21:17:58,569 DEBUG logging:102 Getting transaction 0
2023-09-06 21:17:58,693 DEBUG logging:102 Changing transaction state from "PROCESSING REPLY" to "TRANSACTION_COMPLETE"
2023-09-06 21:18:00,709 DEBUG logging:102 Current transaction state - TRANSACTION_COMPLETE
2023-09-06 21:18:00,709 DEBUG logging:102 Running transaction 7
2023-09-06 21:18:00,709 DEBUG logging:102 SEND: 0x1 0x3 0x3 0xea 0x0 0x1 0xa5 0xba
2023-09-06 21:18:00,709 DEBUG logging:102 Changing state to IDLE - Last Frame End - None Current Time stamp - 1694027880.709055
2023-09-06 21:18:00,711 DEBUG logging:102 New Transaction state "SENDING"
2023-09-06 21:18:00,711 DEBUG logging:102 Changing transaction state from "SENDING" to "WAITING FOR REPLY"
2023-09-06 21:18:00,752 DEBUG logging:102 Changing transaction state from "WAITING FOR REPLY" to "PROCESSING REPLY"
2023-09-06 21:18:00,752 DEBUG logging:102 RECV: 0x1 0x3 0x2 0x0 0x4 0xb9 0x87
2023-09-06 21:18:00,752 DEBUG logging:102 Processing: 0x1 0x3 0x2 0x0 0x4 0xb9 0x87
2023-09-06 21:18:00,752 DEBUG logging:102 Getting Frame - 0x3 0x2 0x0 0x4
2023-09-06 21:18:00,752 DEBUG logging:102 Factory Response[ReadHoldingRegistersResponse': 3]
2023-09-06 21:18:00,752 DEBUG logging:102 Frame advanced, resetting header!!
2023-09-06 21:18:00,752 DEBUG logging:102 Adding transaction 1
2023-09-06 21:18:00,752 DEBUG logging:102 Getting transaction 1
2023-09-06 21:18:00,752 DEBUG logging:102 Changing transaction state from "PROCESSING REPLY" to "TRANSACTION_COMPLETE"
2023-09-06 21:18:00,752 DEBUG logging:102 Current transaction state - TRANSACTION_COMPLETE
2023-09-06 21:18:00,752 DEBUG logging:102 Running transaction 8
2023-09-06 21:18:00,752 DEBUG logging:102 SEND: 0x1 0x5 0x7 0xd0 0x0 0x0 0xcd 0x47
2023-09-06 21:18:00,752 DEBUG logging:102 Changing state to IDLE - Last Frame End - 1694027880.752196 Current Time stamp - 1694027880.752696
2023-09-06 21:18:00,752 DEBUG logging:102 Waiting for 3.5 char before next send - 1.75 ms
2023-09-06 21:18:00,755 DEBUG logging:102 New Transaction state "SENDING"
2023-09-06 21:18:00,755 DEBUG logging:102 Changing transaction state from "SENDING" to "WAITING FOR REPLY"
2023-09-06 21:18:00,796 DEBUG logging:102 Changing transaction state from "WAITING FOR REPLY" to "PROCESSING REPLY"
2023-09-06 21:18:00,796 DEBUG logging:102 RECV: 0x1 0x5 0x7 0xd0 0x0 0x0 0xcd 0x47
2023-09-06 21:18:00,796 DEBUG logging:102 Processing: 0x1 0x5 0x7 0xd0 0x0 0x0 0xcd 0x47
2023-09-06 21:18:00,796 DEBUG logging:102 Getting Frame - 0x5 0x7 0xd0 0x0 0x0
2023-09-06 21:18:00,796 DEBUG logging:102 Factory Response[WriteSingleCoilResponse': 5]
2023-09-06 21:18:00,796 DEBUG logging:102 Frame advanced, resetting header!!
2023-09-06 21:18:00,796 DEBUG logging:102 Adding transaction 1
2023-09-06 21:18:00,796 DEBUG logging:102 Getting transaction 1
2023-09-06 21:18:00,796 DEBUG logging:102 Changing transaction state from "PROCESSING REPLY" to "TRANSACTION_COMPLETE"
2023-09-11 11:57:28,612 DEBUG logging:102 Current transaction state - IDLE
2023-09-11 11:57:28,612 DEBUG logging:102 Running transaction 1
2023-09-11 11:57:28,612 DEBUG logging:102 SEND: 0x1 0x5 0x7 0xd0 0xff 0x0 0x8c 0xb7
2023-09-11 11:57:28,612 DEBUG logging:102 New Transaction state "SENDING"
2023-09-11 11:57:28,614 DEBUG logging:102 Changing transaction state from "SENDING" to "WAITING FOR REPLY"
2023-09-11 11:57:28,655 DEBUG logging:102 Changing transaction state from "WAITING FOR REPLY" to "PROCESSING REPLY"
2023-09-11 11:57:28,655 DEBUG logging:102 RECV: 0x1 0x5 0x7 0xd0 0xff 0x0 0x8c 0xb7
2023-09-11 11:57:28,655 DEBUG logging:102 Processing: 0x1 0x5 0x7 0xd0 0xff 0x0 0x8c 0xb7
2023-09-11 11:57:28,655 DEBUG logging:102 Getting Frame - 0x5 0x7 0xd0 0xff 0x0
2023-09-11 11:57:28,655 DEBUG logging:102 Factory Response[WriteSingleCoilResponse': 5]
2023-09-11 11:57:28,655 DEBUG logging:102 Frame advanced, resetting header!!
2023-09-11 11:57:28,655 DEBUG logging:102 Adding transaction 1
2023-09-11 11:57:28,655 DEBUG logging:102 Getting transaction 1
2023-09-11 11:57:28,655 DEBUG logging:102 Changing transaction state from "PROCESSING REPLY" to "TRANSACTION_COMPLETE"
2023-09-11 11:57:30,657 DEBUG logging:102 Current transaction state - TRANSACTION_COMPLETE
2023-09-11 11:57:30,657 DEBUG logging:102 Running transaction 2
2023-09-11 11:57:30,657 DEBUG logging:102 SEND: 0x1 0x3 0x3 0xea 0x0 0x1 0xa5 0xba
2023-09-11 11:57:30,657 DEBUG logging:102 Changing state to IDLE - Last Frame End - 1694426248.655157 Current Time stamp - 1694426250.657243
2023-09-11 11:57:30,657 DEBUG logging:102 New Transaction state "SENDING"
2023-09-11 11:57:30,657 DEBUG logging:102 Changing transaction state from "SENDING" to "WAITING FOR REPLY"
2023-09-11 11:57:30,698 DEBUG logging:102 Changing transaction state from "WAITING FOR REPLY" to "PROCESSING REPLY"
2023-09-11 11:57:30,698 DEBUG logging:102 RECV: 0x1 0x3 0x2 0x0 0x1 0x79 0x84
2023-09-11 11:57:30,698 DEBUG logging:102 Processing: 0x1 0x3 0x2 0x0 0x1 0x79 0x84
2023-09-11 11:57:30,698 DEBUG logging:102 Getting Frame - 0x3 0x2 0x0 0x1
2023-09-11 11:57:30,698 DEBUG logging:102 Factory Response[ReadHoldingRegistersResponse': 3]
2023-09-11 11:57:30,698 DEBUG logging:102 Frame advanced, resetting header!!
2023-09-11 11:57:30,698 DEBUG logging:102 Adding transaction 1
2023-09-11 11:57:30,698 DEBUG logging:102 Getting transaction 1
2023-09-11 11:57:30,698 DEBUG logging:102 Changing transaction state from "PROCESSING REPLY" to "TRANSACTION_COMPLETE"
2023-09-11 11:58:26,809 DEBUG logging:102 Current transaction state - IDLE
2023-09-11 11:58:26,809 DEBUG logging:102 Running transaction 1
2023-09-11 11:58:26,809 DEBUG logging:102 SEND: 0x1 0x5 0x7 0xd0 0xff 0x0 0x8c 0xb7
2023-09-11 11:58:26,809 DEBUG logging:102 New Transaction state "SENDING"
2023-09-11 11:58:26,810 DEBUG logging:102 Changing transaction state from "SENDING" to "WAITING FOR REPLY"
2023-09-11 11:58:26,851 DEBUG logging:102 Changing transaction state from "WAITING FOR REPLY" to "PROCESSING REPLY"
2023-09-11 11:58:26,851 DEBUG logging:102 RECV: 0x1 0x5 0x7 0xd0 0xff 0x0 0x8c 0xb7
2023-09-11 11:58:26,851 DEBUG logging:102 Processing: 0x1 0x5 0x7 0xd0 0xff 0x0 0x8c 0xb7
2023-09-11 11:58:26,851 DEBUG logging:102 Getting Frame - 0x5 0x7 0xd0 0xff 0x0
2023-09-11 11:58:26,851 DEBUG logging:102 Factory Response[WriteSingleCoilResponse': 5]
2023-09-11 11:58:26,851 DEBUG logging:102 Frame advanced, resetting header!!
2023-09-11 11:58:26,851 DEBUG logging:102 Adding transaction 1
2023-09-11 11:58:26,851 DEBUG logging:102 Getting transaction 1
2023-09-11 11:58:26,851 DEBUG logging:102 Changing transaction state from "PROCESSING REPLY" to "TRANSACTION_COMPLETE"
2023-09-11 11:58:28,852 DEBUG logging:102 Current transaction state - TRANSACTION_COMPLETE
2023-09-11 11:58:28,852 DEBUG logging:102 Running transaction 2
2023-09-11 11:58:28,852 DEBUG logging:102 SEND: 0x1 0x3 0x3 0xea 0x0 0x1 0xa5 0xba
2023-09-11 11:58:28,852 DEBUG logging:102 Changing state to IDLE - Last Frame End - 1694426306.851319 Current Time stamp - 1694426308.852852
2023-09-11 11:58:28,852 DEBUG logging:102 New Transaction state "SENDING"
2023-09-11 11:58:28,852 DEBUG logging:102 Changing transaction state from "SENDING" to "WAITING FOR REPLY"
2023-09-11 11:58:28,894 DEBUG logging:102 Changing transaction state from "WAITING FOR REPLY" to "PROCESSING REPLY"
2023-09-11 11:58:28,894 DEBUG logging:102 RECV: 0x1 0x3 0x2 0x0 0x1 0x79 0x84
2023-09-11 11:58:28,894 DEBUG logging:102 Processing: 0x1 0x3 0x2 0x0 0x1 0x79 0x84
2023-09-11 11:58:28,894 DEBUG logging:102 Getting Frame - 0x3 0x2 0x0 0x1
2023-09-11 11:58:28,894 DEBUG logging:102 Factory Response[ReadHoldingRegistersResponse': 3]
2023-09-11 11:58:28,895 DEBUG logging:102 Frame advanced, resetting header!!
2023-09-11 11:58:28,895 DEBUG logging:102 Adding transaction 1
2023-09-11 11:58:28,895 DEBUG logging:102 Getting transaction 1
2023-09-11 11:58:28,895 DEBUG logging:102 Changing transaction state from "PROCESSING REPLY" to "TRANSACTION_COMPLETE"
2023-09-11 11:58:55,184 DEBUG logging:102 Current transaction state - IDLE
2023-09-11 11:58:55,185 DEBUG logging:102 Running transaction 1
2023-09-11 11:58:55,185 DEBUG logging:102 SEND: 0x1 0x5 0x7 0xd0 0xff 0x0 0x8c 0xb7
2023-09-11 11:58:55,185 DEBUG logging:102 New Transaction state "SENDING"
2023-09-11 11:58:55,185 DEBUG logging:102 Changing transaction state from "SENDING" to "WAITING FOR REPLY"
2023-09-11 11:58:55,226 DEBUG logging:102 Changing transaction state from "WAITING FOR REPLY" to "PROCESSING REPLY"
2023-09-11 11:58:55,227 DEBUG logging:102 RECV: 0x1 0x5 0x7 0xd0 0xff 0x0 0x8c 0xb7
2023-09-11 11:58:55,227 DEBUG logging:102 Processing: 0x1 0x5 0x7 0xd0 0xff 0x0 0x8c 0xb7
2023-09-11 11:58:55,227 DEBUG logging:102 Getting Frame - 0x5 0x7 0xd0 0xff 0x0
2023-09-11 11:58:55,227 DEBUG logging:102 Factory Response[WriteSingleCoilResponse': 5]
2023-09-11 11:58:55,227 DEBUG logging:102 Frame advanced, resetting header!!
2023-09-11 11:58:55,227 DEBUG logging:102 Adding transaction 1
2023-09-11 11:58:55,227 DEBUG logging:102 Getting transaction 1
2023-09-11 11:58:55,227 DEBUG logging:102 Changing transaction state from "PROCESSING REPLY" to "TRANSACTION_COMPLETE"
2023-09-11 11:58:57,228 DEBUG logging:102 Current transaction state - TRANSACTION_COMPLETE
2023-09-11 11:58:57,228 DEBUG logging:102 Running transaction 2
2023-09-11 11:58:57,228 DEBUG logging:102 SEND: 0x1 0x3 0x3 0xea 0x0 0x1 0xa5 0xba
2023-09-11 11:58:57,228 DEBUG logging:102 Changing state to IDLE - Last Frame End - 1694426335.226934 Current Time stamp - 1694426337.228256
2023-09-11 11:58:57,228 DEBUG logging:102 New Transaction state "SENDING"
2023-09-11 11:58:57,229 DEBUG logging:102 Changing transaction state from "SENDING" to "WAITING FOR REPLY"
2023-09-11 11:58:57,269 DEBUG logging:102 Changing transaction state from "WAITING FOR REPLY" to "PROCESSING REPLY"
2023-09-11 11:58:57,269 DEBUG logging:102 RECV: 0x1 0x3 0x2 0x0 0x1 0x79 0x84
2023-09-11 11:58:57,269 DEBUG logging:102 Processing: 0x1 0x3 0x2 0x0 0x1 0x79 0x84
2023-09-11 11:58:57,269 DEBUG logging:102 Getting Frame - 0x3 0x2 0x0 0x1
2023-09-11 11:58:57,269 DEBUG logging:102 Factory Response[ReadHoldingRegistersResponse': 3]
2023-09-11 11:58:57,271 DEBUG logging:102 Frame advanced, resetting header!!
2023-09-11 11:58:57,271 DEBUG logging:102 Adding transaction 1
2023-09-11 11:58:57,271 DEBUG logging:102 Getting transaction 1
2023-09-11 11:58:57,271 DEBUG logging:102 Changing transaction state from "PROCESSING REPLY" to "TRANSACTION_COMPLETE"
2023-09-11 11:58:57,271 DEBUG logging:102 Current transaction state - TRANSACTION_COMPLETE
2023-09-11 11:58:57,271 DEBUG logging:102 Running transaction 3
2023-09-11 11:58:57,271 DEBUG logging:102 SEND: 0x0 0x10 0x4 0x12 0x0 0x2 0x4 0x0 0x0 0x0 0x1 0x84 0x86
2023-09-11 11:58:57,271 DEBUG logging:102 Changing state to IDLE - Last Frame End - 1694426337.26999 Current Time stamp - 1694426337.271024
2023-09-11 11:58:57,271 DEBUG logging:102 Waiting for 3.5 char before next send - 1.75 ms
2023-09-11 11:58:57,273 DEBUG logging:102 New Transaction state "SENDING"
2023-09-11 11:58:57,274 DEBUG logging:102 Changing transaction state from "SENDING" to "WAITING FOR REPLY"
2023-09-11 11:59:03,426 DEBUG logging:102 Transaction failed. (Modbus Error: [Invalid Message] No response received, expected at least 4 bytes (0 received)) 
2023-09-11 11:59:03,426 DEBUG logging:102 Processing: 
2023-09-11 11:59:03,426 DEBUG logging:102 Getting transaction 0
2023-09-11 11:59:03,426 DEBUG logging:102 Changing transaction state from "PROCESSING REPLY" to "TRANSACTION_COMPLETE"
2023-09-11 11:59:05,461 DEBUG logging:102 Current transaction state - TRANSACTION_COMPLETE
2023-09-11 11:59:05,462 DEBUG logging:102 Running transaction 4
2023-09-11 11:59:05,462 DEBUG logging:102 SEND: 0x1 0x3 0x3 0xea 0x0 0x1 0xa5 0xba
2023-09-11 11:59:05,462 DEBUG logging:102 Changing state to IDLE - Last Frame End - None Current Time stamp - 1694426345.462975
2023-09-11 11:59:05,464 DEBUG logging:102 New Transaction state "SENDING"
2023-09-11 11:59:05,464 DEBUG logging:102 Changing transaction state from "SENDING" to "WAITING FOR REPLY"
2023-09-11 11:59:05,506 DEBUG logging:102 Changing transaction state from "WAITING FOR REPLY" to "PROCESSING REPLY"
2023-09-11 11:59:05,506 DEBUG logging:102 RECV: 0x1 0x3 0x2 0x0 0xa 0x38 0x43
2023-09-11 11:59:05,507 DEBUG logging:102 Processing: 0x1 0x3 0x2 0x0 0xa 0x38 0x43
2023-09-11 11:59:05,507 DEBUG logging:102 Getting Frame - 0x3 0x2 0x0 0xa
2023-09-11 11:59:05,507 DEBUG logging:102 Factory Response[ReadHoldingRegistersResponse': 3]
2023-09-11 11:59:05,507 DEBUG logging:102 Frame advanced, resetting header!!
2023-09-11 11:59:05,507 DEBUG logging:102 Adding transaction 1
2023-09-11 11:59:05,507 DEBUG logging:102 Getting transaction 1
2023-09-11 11:59:05,507 DEBUG logging:102 Changing transaction state from "PROCESSING REPLY" to "TRANSACTION_COMPLETE"
2023-09-11 11:59:05,507 DEBUG logging:102 Current transaction state - TRANSACTION_COMPLETE
2023-09-11 11:59:05,507 DEBUG logging:102 Running transaction 5
2023-09-11 11:59:05,508 DEBUG logging:102 SEND: 0x1 0x3 0x3 0xea 0x0 0x1 0xa5 0xba
2023-09-11 11:59:05,508 DEBUG logging:102 Changing state to IDLE - Last Frame End - 1694426345.506661 Current Time stamp - 1694426345.50821
2023-09-11 11:59:05,508 DEBUG logging:102 Waiting for 3.5 char before next send - 1.75 ms
2023-09-11 11:59:05,510 DEBUG logging:102 New Transaction state "SENDING"
2023-09-11 11:59:05,510 DEBUG logging:102 Changing transaction state from "SENDING" to "WAITING FOR REPLY"
2023-09-11 11:59:05,551 DEBUG logging:102 Changing transaction state from "WAITING FOR REPLY" to "PROCESSING REPLY"
2023-09-11 11:59:05,551 DEBUG logging:102 RECV: 0x1 0x3 0x2 0x0 0xa 0x38 0x43
2023-09-11 11:59:05,551 DEBUG logging:102 Processing: 0x1 0x3 0x2 0x0 0xa 0x38 0x43
2023-09-11 11:59:05,551 DEBUG logging:102 Getting Frame - 0x3 0x2 0x0 0xa
2023-09-11 11:59:05,551 DEBUG logging:102 Factory Response[ReadHoldingRegistersResponse': 3]
2023-09-11 11:59:05,552 DEBUG logging:102 Frame advanced, resetting header!!
2023-09-11 11:59:05,552 DEBUG logging:102 Adding transaction 1
2023-09-11 11:59:05,552 DEBUG logging:102 Getting transaction 1
2023-09-11 11:59:05,552 DEBUG logging:102 Changing transaction state from "PROCESSING REPLY" to "TRANSACTION_COMPLETE"
2023-09-11 11:59:05,552 DEBUG logging:102 Current transaction state - TRANSACTION_COMPLETE
2023-09-11 11:59:05,552 DEBUG logging:102 Running transaction 6
2023-09-11 11:59:05,552 DEBUG logging:102 SEND: 0x0 0x10 0x4 0x12 0x0 0x2 0x4 0x0 0x0 0x0 0x0 0x45 0x46
2023-09-11 11:59:05,552 DEBUG logging:102 Changing state to IDLE - Last Frame End - 1694426345.551748 Current Time stamp - 1694426345.552807
2023-09-11 11:59:05,553 DEBUG logging:102 Waiting for 3.5 char before next send - 1.75 ms
2023-09-11 11:59:05,556 DEBUG logging:102 New Transaction state "SENDING"
2023-09-11 11:59:05,556 DEBUG logging:102 Changing transaction state from "SENDING" to "WAITING FOR REPLY"
2023-09-11 11:59:11,582 DEBUG logging:102 No response received, Expected 8 bytes Received 0 bytes !!!!
2023-09-11 11:59:11,582 DEBUG logging:102 Changing transaction state from "WAITING FOR REPLY" to "PROCESSING REPLY"
2023-09-11 11:59:11,582 DEBUG logging:102 RECV: 
2023-09-11 11:59:11,582 DEBUG logging:102 Processing: 
2023-09-11 11:59:11,582 DEBUG logging:102 Getting transaction 0
2023-09-11 11:59:11,706 DEBUG logging:102 Changing transaction state from "PROCESSING REPLY" to "TRANSACTION_COMPLETE"
2023-09-11 11:59:13,742 DEBUG logging:102 Current transaction state - TRANSACTION_COMPLETE
2023-09-11 11:59:13,742 DEBUG logging:102 Running transaction 7
2023-09-11 11:59:13,742 DEBUG logging:102 SEND: 0x1 0x3 0x3 0xea 0x0 0x1 0xa5 0xba
2023-09-11 11:59:13,742 DEBUG logging:102 Changing state to IDLE - Last Frame End - None Current Time stamp - 1694426353.742599
2023-09-11 11:59:13,745 DEBUG logging:102 New Transaction state "SENDING"
2023-09-11 11:59:13,745 DEBUG logging:102 Changing transaction state from "SENDING" to "WAITING FOR REPLY"
2023-09-11 11:59:13,786 DEBUG logging:102 Changing transaction state from "WAITING FOR REPLY" to "PROCESSING REPLY"
2023-09-11 11:59:13,787 DEBUG logging:102 RECV: 0x1 0x3 0x2 0x0 0x4 0xb9 0x87
2023-09-11 11:59:13,787 DEBUG logging:102 Processing: 0x1 0x3 0x2 0x0 0x4 0xb9 0x87
2023-09-11 11:59:13,787 DEBUG logging:102 Getting Frame - 0x3 0x2 0x0 0x4
2023-09-11 11:59:13,787 DEBUG logging:102 Factory Response[ReadHoldingRegistersResponse': 3]
2023-09-11 11:59:13,787 DEBUG logging:102 Frame advanced, resetting header!!
2023-09-11 11:59:13,787 DEBUG logging:102 Adding transaction 1
2023-09-11 11:59:13,787 DEBUG logging:102 Getting transaction 1
2023-09-11 11:59:13,787 DEBUG logging:102 Changing transaction state from "PROCESSING REPLY" to "TRANSACTION_COMPLETE"
2023-09-11 11:59:13,788 DEBUG logging:102 Current transaction state - TRANSACTION_COMPLETE
2023-09-11 11:59:13,788 DEBUG logging:102 Running transaction 8
2023-09-11 11:59:13,788 DEBUG logging:102 SEND: 0x1 0x5 0x7 0xd0 0x0 0x0 0xcd 0x47
2023-09-11 11:59:13,788 DEBUG logging:102 Changing state to IDLE - Last Frame End - 1694426353.786838 Current Time stamp - 1694426353.788359
2023-09-11 11:59:13,788 DEBUG logging:102 Waiting for 3.5 char before next send - 1.75 ms
2023-09-11 11:59:13,791 DEBUG logging:102 New Transaction state "SENDING"
2023-09-11 11:59:13,791 DEBUG logging:102 Changing transaction state from "SENDING" to "WAITING FOR REPLY"
2023-09-11 11:59:13,832 DEBUG logging:102 Changing transaction state from "WAITING FOR REPLY" to "PROCESSING REPLY"
2023-09-11 11:59:13,832 DEBUG logging:102 RECV: 0x1 0x5 0x7 0xd0 0x0 0x0 0xcd 0x47
2023-09-11 11:59:13,832 DEBUG logging:102 Processing: 0x1 0x5 0x7 0xd0 0x0 0x0 0xcd 0x47
2023-09-11 11:59:13,832 DEBUG logging:102 Getting Frame - 0x5 0x7 0xd0 0x0 0x0
2023-09-11 11:59:13,832 DEBUG logging:102 Factory Response[WriteSingleCoilResponse': 5]
2023-09-11 11:59:13,832 DEBUG logging:102 Frame advanced, resetting header!!
2023-09-11 11:59:13,832 DEBUG logging:102 Adding transaction 1
2023-09-11 11:59:13,833 DEBUG logging:102 Getting transaction 1
2023-09-11 11:59:13,833 DEBUG logging:102 Changing transaction state from "PROCESSING REPLY" to "TRANSACTION_COMPLETE"
2023-09-11 12:02:44,983 DEBUG logging:102 Current transaction state - IDLE
2023-09-11 12:02:44,983 DEBUG logging:102 Running transaction 1
2023-09-11 12:02:44,983 DEBUG logging:102 SEND: 0x1 0x3 0x13 0x88 0x0 0xa 0x41 0x63
2023-09-11 12:02:44,983 DEBUG logging:102 New Transaction state "SENDING"
2023-09-11 12:02:44,984 DEBUG logging:102 Changing transaction state from "SENDING" to "WAITING FOR REPLY"
2023-09-11 12:02:45,025 DEBUG logging:102 Changing transaction state from "WAITING FOR REPLY" to "PROCESSING REPLY"
2023-09-11 12:02:45,025 DEBUG logging:102 RECV: 0x1 0x83 0x2 0xc0 0xf1
2023-09-11 12:02:45,025 DEBUG logging:102 Processing: 0x1 0x83 0x2 0xc0 0xf1
2023-09-11 12:02:45,025 DEBUG logging:102 Getting Frame - 0x83 0x2
2023-09-11 12:02:45,025 DEBUG logging:102 Factory Response[131]
2023-09-11 12:02:45,025 DEBUG logging:102 Frame advanced, resetting header!!
2023-09-11 12:02:45,025 DEBUG logging:102 Adding transaction 1
2023-09-11 12:02:45,026 DEBUG logging:102 Getting transaction 1
2023-09-11 12:02:45,026 DEBUG logging:102 Changing transaction state from "PROCESSING REPLY" to "TRANSACTION_COMPLETE"
2023-09-11 12:02:59,727 DEBUG logging:102 Current transaction state - IDLE
2023-09-11 12:02:59,727 DEBUG logging:102 Running transaction 1
2023-09-11 12:02:59,728 DEBUG logging:102 SEND: 0x1 0x3 0x13 0x89 0x0 0xa 0x10 0xa3
2023-09-11 12:02:59,728 DEBUG logging:102 New Transaction state "SENDING"
2023-09-11 12:02:59,728 DEBUG logging:102 Changing transaction state from "SENDING" to "WAITING FOR REPLY"
2023-09-11 12:02:59,769 DEBUG logging:102 Changing transaction state from "WAITING FOR REPLY" to "PROCESSING REPLY"
2023-09-11 12:02:59,769 DEBUG logging:102 RECV: 0x1 0x83 0x2 0xc0 0xf1
2023-09-11 12:02:59,769 DEBUG logging:102 Processing: 0x1 0x83 0x2 0xc0 0xf1
2023-09-11 12:02:59,769 DEBUG logging:102 Getting Frame - 0x83 0x2
2023-09-11 12:02:59,770 DEBUG logging:102 Factory Response[131]
2023-09-11 12:02:59,770 DEBUG logging:102 Frame advanced, resetting header!!
2023-09-11 12:02:59,770 DEBUG logging:102 Adding transaction 1
2023-09-11 12:02:59,770 DEBUG logging:102 Getting transaction 1
2023-09-11 12:02:59,770 DEBUG logging:102 Changing transaction state from "PROCESSING REPLY" to "TRANSACTION_COMPLETE"
2023-09-11 12:03:16,299 DEBUG logging:102 Current transaction state - IDLE
2023-09-11 12:03:16,299 DEBUG logging:102 Running transaction 1
2023-09-11 12:03:16,299 DEBUG logging:102 SEND: 0x1 0x4 0x13 0x89 0x0 0xa 0xa5 0x63
2023-09-11 12:03:16,299 DEBUG logging:102 New Transaction state "SENDING"
2023-09-11 12:03:16,301 DEBUG logging:102 Changing transaction state from "SENDING" to "WAITING FOR REPLY"
2023-09-11 12:03:16,348 DEBUG logging:102 Changing transaction state from "WAITING FOR REPLY" to "PROCESSING REPLY"
2023-09-11 12:03:16,348 DEBUG logging:102 RECV: 0x1 0x84 0x1 0x82 0xc0
2023-09-11 12:03:16,348 DEBUG logging:102 Processing: 0x1 0x84 0x1 0x82 0xc0
2023-09-11 12:03:16,349 DEBUG logging:102 Getting Frame - 0x84 0x1
2023-09-11 12:03:16,349 DEBUG logging:102 Factory Response[132]
2023-09-11 12:03:16,349 DEBUG logging:102 Frame advanced, resetting header!!
2023-09-11 12:03:16,349 DEBUG logging:102 Adding transaction 1
2023-09-11 12:03:16,349 DEBUG logging:102 Getting transaction 1
2023-09-11 12:03:16,349 DEBUG logging:102 Changing transaction state from "PROCESSING REPLY" to "TRANSACTION_COMPLETE"
2023-09-11 12:03:46,325 DEBUG logging:102 Current transaction state - IDLE
2023-09-11 12:03:46,325 DEBUG logging:102 Running transaction 1
2023-09-11 12:03:46,325 DEBUG logging:102 SEND: 0x1 0x4 0x13 0x88 0x0 0xa 0xf4 0xa3
2023-09-11 12:03:46,325 DEBUG logging:102 New Transaction state "SENDING"
2023-09-11 12:03:46,325 DEBUG logging:102 Changing transaction state from "SENDING" to "WAITING FOR REPLY"
2023-09-11 12:03:46,367 DEBUG logging:102 Changing transaction state from "WAITING FOR REPLY" to "PROCESSING REPLY"
2023-09-11 12:03:46,367 DEBUG logging:102 RECV: 0x1 0x84 0x1 0x82 0xc0
2023-09-11 12:03:46,367 DEBUG logging:102 Processing: 0x1 0x84 0x1 0x82 0xc0
2023-09-11 12:03:46,367 DEBUG logging:102 Getting Frame - 0x84 0x1
2023-09-11 12:03:46,367 DEBUG logging:102 Factory Response[132]
2023-09-11 12:03:46,368 DEBUG logging:102 Frame advanced, resetting header!!
2023-09-11 12:03:46,368 DEBUG logging:102 Adding transaction 1
2023-09-11 12:03:46,368 DEBUG logging:102 Getting transaction 1
2023-09-11 12:03:46,368 DEBUG logging:102 Changing transaction state from "PROCESSING REPLY" to "TRANSACTION_COMPLETE"
2023-09-11 12:03:55,680 DEBUG logging:102 Current transaction state - IDLE
2023-09-11 12:03:55,680 DEBUG logging:102 Running transaction 1
2023-09-11 12:03:55,680 DEBUG logging:102 SEND: 0x1 0x1 0x13 0x88 0x0 0xa 0x38 0xa3
2023-09-11 12:03:55,680 DEBUG logging:102 New Transaction state "SENDING"
2023-09-11 12:03:55,681 DEBUG logging:102 Changing transaction state from "SENDING" to "WAITING FOR REPLY"
2023-09-11 12:03:55,722 DEBUG logging:102 Changing transaction state from "WAITING FOR REPLY" to "PROCESSING REPLY"
2023-09-11 12:03:55,722 DEBUG logging:102 RECV: 0x1 0x81 0x2 0xc1 0x91
2023-09-11 12:03:55,722 DEBUG logging:102 Processing: 0x1 0x81 0x2 0xc1 0x91
2023-09-11 12:03:55,722 DEBUG logging:102 Getting Frame - 0x81 0x2
2023-09-11 12:03:55,722 DEBUG logging:102 Factory Response[129]
2023-09-11 12:03:55,723 DEBUG logging:102 Frame advanced, resetting header!!
2023-09-11 12:03:55,723 DEBUG logging:102 Adding transaction 1
2023-09-11 12:03:55,723 DEBUG logging:102 Getting transaction 1
2023-09-11 12:03:55,723 DEBUG logging:102 Changing transaction state from "PROCESSING REPLY" to "TRANSACTION_COMPLETE"
2023-09-11 12:04:20,015 DEBUG logging:102 Current transaction state - IDLE
2023-09-11 12:04:20,016 DEBUG logging:102 Running transaction 1
2023-09-11 12:04:20,016 DEBUG logging:102 SEND: 0x0 0x17 0x13 0x88 0x0 0xa 0x0 0x1 0x0 0x1 0x2 0x0 0x0 0xcb 0xcb
2023-09-11 12:04:20,016 DEBUG logging:102 New Transaction state "SENDING"
2023-09-11 12:04:20,016 DEBUG logging:102 Changing transaction state from "SENDING" to "WAITING FOR REPLY"
2023-09-11 12:04:26,147 DEBUG logging:102 Transaction failed. (Modbus Error: [Invalid Message] No response received, expected at least 4 bytes (0 received)) 
2023-09-11 12:04:26,147 DEBUG logging:102 Processing: 
2023-09-11 12:04:26,147 DEBUG logging:102 Getting transaction 0
2023-09-11 12:04:26,147 DEBUG logging:102 Changing transaction state from "PROCESSING REPLY" to "TRANSACTION_COMPLETE"
2023-09-11 12:08:11,281 DEBUG logging:102 Current transaction state - IDLE
2023-09-11 12:08:11,281 DEBUG logging:102 Running transaction 1
2023-09-11 12:08:11,281 DEBUG logging:102 SEND: 0x1 0x3 0xf 0xa1 0x0 0x1 0xd6 0xfc
2023-09-11 12:08:11,281 DEBUG logging:102 New Transaction state "SENDING"
2023-09-11 12:08:11,282 DEBUG logging:102 Changing transaction state from "SENDING" to "WAITING FOR REPLY"
2023-09-11 12:08:11,323 DEBUG logging:102 Changing transaction state from "WAITING FOR REPLY" to "PROCESSING REPLY"
2023-09-11 12:08:11,323 DEBUG logging:102 RECV: 0x1 0x83 0x2 0xc0 0xf1
2023-09-11 12:08:11,323 DEBUG logging:102 Processing: 0x1 0x83 0x2 0xc0 0xf1
2023-09-11 12:08:11,323 DEBUG logging:102 Getting Frame - 0x83 0x2
2023-09-11 12:08:11,323 DEBUG logging:102 Factory Response[131]
2023-09-11 12:08:11,324 DEBUG logging:102 Frame advanced, resetting header!!
2023-09-11 12:08:11,324 DEBUG logging:102 Adding transaction 1
2023-09-11 12:08:11,324 DEBUG logging:102 Getting transaction 1
2023-09-11 12:08:11,324 DEBUG logging:102 Changing transaction state from "PROCESSING REPLY" to "TRANSACTION_COMPLETE"
2023-09-11 12:08:40,699 DEBUG logging:102 Current transaction state - IDLE
2023-09-11 12:08:40,699 DEBUG logging:102 Running transaction 1
2023-09-11 12:08:40,699 DEBUG logging:102 SEND: 0x1 0x3 0x3 0xe9 0x0 0x1 0x55 0xba
2023-09-11 12:08:40,699 DEBUG logging:102 New Transaction state "SENDING"
2023-09-11 12:08:40,699 DEBUG logging:102 Changing transaction state from "SENDING" to "WAITING FOR REPLY"
2023-09-11 12:08:40,741 DEBUG logging:102 Changing transaction state from "WAITING FOR REPLY" to "PROCESSING REPLY"
2023-09-11 12:08:40,741 DEBUG logging:102 RECV: 0x1 0x3 0x2 0x0 0x0 0xb8 0x44
2023-09-11 12:08:40,741 DEBUG logging:102 Processing: 0x1 0x3 0x2 0x0 0x0 0xb8 0x44
2023-09-11 12:08:40,741 DEBUG logging:102 Getting Frame - 0x3 0x2 0x0 0x0
2023-09-11 12:08:40,741 DEBUG logging:102 Factory Response[ReadHoldingRegistersResponse': 3]
2023-09-11 12:08:40,741 DEBUG logging:102 Frame advanced, resetting header!!
2023-09-11 12:08:40,741 DEBUG logging:102 Adding transaction 1
2023-09-11 12:08:40,741 DEBUG logging:102 Getting transaction 1
2023-09-11 12:08:40,741 DEBUG logging:102 Changing transaction state from "PROCESSING REPLY" to "TRANSACTION_COMPLETE"
2023-09-11 12:09:14,585 DEBUG logging:102 Current transaction state - IDLE
2023-09-11 12:09:14,585 DEBUG logging:102 Running transaction 1
2023-09-11 12:09:14,585 DEBUG logging:102 SEND: 0x1 0x3 0x4 0x0 0x0 0x1 0x85 0x3a
2023-09-11 12:09:14,585 DEBUG logging:102 New Transaction state "SENDING"
2023-09-11 12:09:14,586 DEBUG logging:102 Changing transaction state from "SENDING" to "WAITING FOR REPLY"
2023-09-11 12:09:14,627 DEBUG logging:102 Changing transaction state from "WAITING FOR REPLY" to "PROCESSING REPLY"
2023-09-11 12:09:14,627 DEBUG logging:102 RECV: 0x1 0x3 0x2 0x0 0x0 0xb8 0x44
2023-09-11 12:09:14,627 DEBUG logging:102 Processing: 0x1 0x3 0x2 0x0 0x0 0xb8 0x44
2023-09-11 12:09:14,627 DEBUG logging:102 Getting Frame - 0x3 0x2 0x0 0x0
2023-09-11 12:09:14,627 DEBUG logging:102 Factory Response[ReadHoldingRegistersResponse': 3]
2023-09-11 12:09:14,627 DEBUG logging:102 Frame advanced, resetting header!!
2023-09-11 12:09:14,627 DEBUG logging:102 Adding transaction 1
2023-09-11 12:09:14,627 DEBUG logging:102 Getting transaction 1
2023-09-11 12:09:14,627 DEBUG logging:102 Changing transaction state from "PROCESSING REPLY" to "TRANSACTION_COMPLETE"
2023-09-11 12:09:25,809 DEBUG logging:102 Current transaction state - IDLE
2023-09-11 12:09:25,809 DEBUG logging:102 Running transaction 1
2023-09-11 12:09:25,809 DEBUG logging:102 SEND: 0x1 0x3 0x4 0x2 0x0 0x1 0x24 0xfa
2023-09-11 12:09:25,809 DEBUG logging:102 New Transaction state "SENDING"
2023-09-11 12:09:25,809 DEBUG logging:102 Changing transaction state from "SENDING" to "WAITING FOR REPLY"
2023-09-11 12:09:25,851 DEBUG logging:102 Changing transaction state from "WAITING FOR REPLY" to "PROCESSING REPLY"
2023-09-11 12:09:25,851 DEBUG logging:102 RECV: 0x1 0x3 0x2 0xfa 0x0 0xfa 0xe4
2023-09-11 12:09:25,851 DEBUG logging:102 Processing: 0x1 0x3 0x2 0xfa 0x0 0xfa 0xe4
2023-09-11 12:09:25,851 DEBUG logging:102 Getting Frame - 0x3 0x2 0xfa 0x0
2023-09-11 12:09:25,852 DEBUG logging:102 Factory Response[ReadHoldingRegistersResponse': 3]
2023-09-11 12:09:25,852 DEBUG logging:102 Frame advanced, resetting header!!
2023-09-11 12:09:25,852 DEBUG logging:102 Adding transaction 1
2023-09-11 12:09:25,852 DEBUG logging:102 Getting transaction 1
2023-09-11 12:09:25,852 DEBUG logging:102 Changing transaction state from "PROCESSING REPLY" to "TRANSACTION_COMPLETE"
2023-09-11 12:10:19,015 DEBUG logging:102 Current transaction state - IDLE
2023-09-11 12:10:19,015 DEBUG logging:102 Running transaction 1
2023-09-11 12:10:19,015 DEBUG logging:102 SEND: 0x1 0x3 0x4 0x2 0x0 0x1 0x24 0xfa
2023-09-11 12:10:19,015 DEBUG logging:102 New Transaction state "SENDING"
2023-09-11 12:10:19,016 DEBUG logging:102 Changing transaction state from "SENDING" to "WAITING FOR REPLY"
2023-09-11 12:10:19,057 DEBUG logging:102 Changing transaction state from "WAITING FOR REPLY" to "PROCESSING REPLY"
2023-09-11 12:10:19,057 DEBUG logging:102 RECV: 0x1 0x3 0x2 0xfa 0x0 0xfa 0xe4
2023-09-11 12:10:19,057 DEBUG logging:102 Processing: 0x1 0x3 0x2 0xfa 0x0 0xfa 0xe4
2023-09-11 12:10:19,057 DEBUG logging:102 Getting Frame - 0x3 0x2 0xfa 0x0
2023-09-11 12:10:19,058 DEBUG logging:102 Factory Response[ReadHoldingRegistersResponse': 3]
2023-09-11 12:10:19,058 DEBUG logging:102 Frame advanced, resetting header!!
2023-09-11 12:10:19,058 DEBUG logging:102 Adding transaction 1
2023-09-11 12:10:19,058 DEBUG logging:102 Getting transaction 1
2023-09-11 12:10:19,058 DEBUG logging:102 Changing transaction state from "PROCESSING REPLY" to "TRANSACTION_COMPLETE"
2023-09-11 12:10:19,058 DEBUG logging:102 Current transaction state - TRANSACTION_COMPLETE
2023-09-11 12:10:19,058 DEBUG logging:102 Running transaction 2
2023-09-11 12:10:19,058 DEBUG logging:102 SEND: 0x1 0x6 0x4 0x2 0xea 0x60 0x66 0x72
2023-09-11 12:10:19,058 DEBUG logging:102 Changing state to IDLE - Last Frame End - 1694427019.057631 Current Time stamp - 1694427019.058692
2023-09-11 12:10:19,059 DEBUG logging:102 Waiting for 3.5 char before next send - 1.75 ms
2023-09-11 12:10:19,061 DEBUG logging:102 New Transaction state "SENDING"
2023-09-11 12:10:19,061 DEBUG logging:102 Changing transaction state from "SENDING" to "WAITING FOR REPLY"
2023-09-11 12:10:19,102 DEBUG logging:102 Changing transaction state from "WAITING FOR REPLY" to "PROCESSING REPLY"
2023-09-11 12:10:19,102 DEBUG logging:102 RECV: 0x1 0x86 0x2 0xc3 0xa1
2023-09-11 12:10:19,102 DEBUG logging:102 Processing: 0x1 0x86 0x2 0xc3 0xa1
2023-09-11 12:10:19,103 DEBUG logging:102 Getting Frame - 0x86 0x2
2023-09-11 12:10:19,103 DEBUG logging:102 Factory Response[134]
2023-09-11 12:10:19,103 DEBUG logging:102 Frame advanced, resetting header!!
2023-09-11 12:10:19,103 DEBUG logging:102 Adding transaction 1
2023-09-11 12:10:19,103 DEBUG logging:102 Getting transaction 1
2023-09-11 12:10:19,103 DEBUG logging:102 Changing transaction state from "PROCESSING REPLY" to "TRANSACTION_COMPLETE"
2023-09-11 12:10:19,103 DEBUG logging:102 Current transaction state - TRANSACTION_COMPLETE
2023-09-11 12:10:19,103 DEBUG logging:102 Running transaction 3
2023-09-11 12:10:19,104 DEBUG logging:102 SEND: 0x1 0x3 0x4 0x2 0x0 0x1 0x24 0xfa
2023-09-11 12:10:19,104 DEBUG logging:102 Changing state to IDLE - Last Frame End - 1694427019.102895 Current Time stamp - 1694427019.104934
2023-09-11 12:10:19,104 DEBUG logging:102 Waiting for 3.5 char before next send - 1.75 ms
2023-09-11 12:10:19,107 DEBUG logging:102 New Transaction state "SENDING"
2023-09-11 12:10:19,107 DEBUG logging:102 Changing transaction state from "SENDING" to "WAITING FOR REPLY"
2023-09-11 12:10:19,148 DEBUG logging:102 Changing transaction state from "WAITING FOR REPLY" to "PROCESSING REPLY"
2023-09-11 12:10:19,148 DEBUG logging:102 RECV: 0x1 0x3 0x2 0xfa 0x0 0xfa 0xe4
2023-09-11 12:10:19,148 DEBUG logging:102 Processing: 0x1 0x3 0x2 0xfa 0x0 0xfa 0xe4
2023-09-11 12:10:19,148 DEBUG logging:102 Getting Frame - 0x3 0x2 0xfa 0x0
2023-09-11 12:10:19,148 DEBUG logging:102 Factory Response[ReadHoldingRegistersResponse': 3]
2023-09-11 12:10:19,148 DEBUG logging:102 Frame advanced, resetting header!!
2023-09-11 12:10:19,148 DEBUG logging:102 Adding transaction 1
2023-09-11 12:10:19,150 DEBUG logging:102 Getting transaction 1
2023-09-11 12:10:19,150 DEBUG logging:102 Changing transaction state from "PROCESSING REPLY" to "TRANSACTION_COMPLETE"
2023-09-11 12:10:52,103 DEBUG logging:102 Current transaction state - IDLE
2023-09-11 12:10:52,103 DEBUG logging:102 Running transaction 1
2023-09-11 12:10:52,103 DEBUG logging:102 SEND: 0x1 0x3 0x4 0x2 0x0 0x1 0x24 0xfa
2023-09-11 12:10:52,103 DEBUG logging:102 New Transaction state "SENDING"
2023-09-11 12:10:52,103 DEBUG logging:102 Changing transaction state from "SENDING" to "WAITING FOR REPLY"
2023-09-11 12:10:52,145 DEBUG logging:102 Changing transaction state from "WAITING FOR REPLY" to "PROCESSING REPLY"
2023-09-11 12:10:52,145 DEBUG logging:102 RECV: 0x1 0x3 0x2 0xfa 0x0 0xfa 0xe4
2023-09-11 12:10:52,145 DEBUG logging:102 Processing: 0x1 0x3 0x2 0xfa 0x0 0xfa 0xe4
2023-09-11 12:10:52,145 DEBUG logging:102 Getting Frame - 0x3 0x2 0xfa 0x0
2023-09-11 12:10:52,145 DEBUG logging:102 Factory Response[ReadHoldingRegistersResponse': 3]
2023-09-11 12:10:52,145 DEBUG logging:102 Frame advanced, resetting header!!
2023-09-11 12:10:52,145 DEBUG logging:102 Adding transaction 1
2023-09-11 12:10:52,146 DEBUG logging:102 Getting transaction 1
2023-09-11 12:10:52,146 DEBUG logging:102 Changing transaction state from "PROCESSING REPLY" to "TRANSACTION_COMPLETE"
2023-09-11 12:10:52,146 DEBUG logging:102 Current transaction state - TRANSACTION_COMPLETE
2023-09-11 12:10:52,146 DEBUG logging:102 Running transaction 2
2023-09-11 12:10:52,146 DEBUG logging:102 SEND: 0x1 0x6 0x4 0x2 0xea 0x60 0x66 0x72
2023-09-11 12:10:52,146 DEBUG logging:102 Changing state to IDLE - Last Frame End - 1694427052.145521 Current Time stamp - 1694427052.146584
2023-09-11 12:10:52,146 DEBUG logging:102 Waiting for 3.5 char before next send - 1.75 ms
2023-09-11 12:10:52,149 DEBUG logging:102 New Transaction state "SENDING"
2023-09-11 12:10:52,149 DEBUG logging:102 Changing transaction state from "SENDING" to "WAITING FOR REPLY"
2023-09-11 12:10:52,190 DEBUG logging:102 Changing transaction state from "WAITING FOR REPLY" to "PROCESSING REPLY"
2023-09-11 12:10:52,190 DEBUG logging:102 RECV: 0x1 0x86 0x2 0xc3 0xa1
2023-09-11 12:10:52,190 DEBUG logging:102 Processing: 0x1 0x86 0x2 0xc3 0xa1
2023-09-11 12:10:52,190 DEBUG logging:102 Getting Frame - 0x86 0x2
2023-09-11 12:10:52,190 DEBUG logging:102 Factory Response[134]
2023-09-11 12:10:52,190 DEBUG logging:102 Frame advanced, resetting header!!
2023-09-11 12:10:52,191 DEBUG logging:102 Adding transaction 1
2023-09-11 12:10:52,191 DEBUG logging:102 Getting transaction 1
2023-09-11 12:10:52,191 DEBUG logging:102 Changing transaction state from "PROCESSING REPLY" to "TRANSACTION_COMPLETE"
2023-09-11 12:10:52,191 DEBUG logging:102 Current transaction state - TRANSACTION_COMPLETE
2023-09-11 12:10:52,191 DEBUG logging:102 Running transaction 3
2023-09-11 12:10:52,191 DEBUG logging:102 SEND: 0x1 0x3 0x4 0x2 0x0 0x1 0x24 0xfa
2023-09-11 12:10:52,191 DEBUG logging:102 Changing state to IDLE - Last Frame End - 1694427052.190625 Current Time stamp - 1694427052.19181
2023-09-11 12:10:52,192 DEBUG logging:102 Waiting for 3.5 char before next send - 1.75 ms
2023-09-11 12:10:52,194 DEBUG logging:102 New Transaction state "SENDING"
2023-09-11 12:10:52,194 DEBUG logging:102 Changing transaction state from "SENDING" to "WAITING FOR REPLY"
2023-09-11 12:10:52,235 DEBUG logging:102 Changing transaction state from "WAITING FOR REPLY" to "PROCESSING REPLY"
2023-09-11 12:10:52,235 DEBUG logging:102 RECV: 0x1 0x3 0x2 0xfa 0x0 0xfa 0xe4
2023-09-11 12:10:52,235 DEBUG logging:102 Processing: 0x1 0x3 0x2 0xfa 0x0 0xfa 0xe4
2023-09-11 12:10:52,235 DEBUG logging:102 Getting Frame - 0x3 0x2 0xfa 0x0
2023-09-11 12:10:52,235 DEBUG logging:102 Factory Response[ReadHoldingRegistersResponse': 3]
2023-09-11 12:10:52,235 DEBUG logging:102 Frame advanced, resetting header!!
2023-09-11 12:10:52,235 DEBUG logging:102 Adding transaction 1
2023-09-11 12:10:52,235 DEBUG logging:102 Getting transaction 1
2023-09-11 12:10:52,235 DEBUG logging:102 Changing transaction state from "PROCESSING REPLY" to "TRANSACTION_COMPLETE"
2023-09-11 12:12:05,540 DEBUG logging:102 Current transaction state - IDLE
2023-09-11 12:12:05,540 DEBUG logging:102 Running transaction 1
2023-09-11 12:12:05,540 DEBUG logging:102 SEND: 0x1 0x3 0x4 0x2 0x0 0x1 0x24 0xfa
2023-09-11 12:12:05,540 DEBUG logging:102 New Transaction state "SENDING"
2023-09-11 12:12:05,540 DEBUG logging:102 Changing transaction state from "SENDING" to "WAITING FOR REPLY"
2023-09-11 12:12:05,582 DEBUG logging:102 Changing transaction state from "WAITING FOR REPLY" to "PROCESSING REPLY"
2023-09-11 12:12:05,582 DEBUG logging:102 RECV: 0x1 0x3 0x2 0xfa 0x0 0xfa 0xe4
2023-09-11 12:12:05,582 DEBUG logging:102 Processing: 0x1 0x3 0x2 0xfa 0x0 0xfa 0xe4
2023-09-11 12:12:05,582 DEBUG logging:102 Getting Frame - 0x3 0x2 0xfa 0x0
2023-09-11 12:12:05,582 DEBUG logging:102 Factory Response[ReadHoldingRegistersResponse': 3]
2023-09-11 12:12:05,582 DEBUG logging:102 Frame advanced, resetting header!!
2023-09-11 12:12:05,582 DEBUG logging:102 Adding transaction 1
2023-09-11 12:12:05,582 DEBUG logging:102 Getting transaction 1
2023-09-11 12:12:05,582 DEBUG logging:102 Changing transaction state from "PROCESSING REPLY" to "TRANSACTION_COMPLETE"
2023-09-11 12:12:05,583 DEBUG logging:102 Current transaction state - TRANSACTION_COMPLETE
2023-09-11 12:12:05,583 DEBUG logging:102 Running transaction 2
2023-09-11 12:12:05,583 DEBUG logging:102 SEND: 0x0 0x10 0x4 0x2 0x0 0x2 0x4 0x0 0x0 0xea 0x60 0xb 0x2
2023-09-11 12:12:05,583 DEBUG logging:102 Changing state to IDLE - Last Frame End - 1694427125.582047 Current Time stamp - 1694427125.583589
2023-09-11 12:12:05,583 DEBUG logging:102 Waiting for 3.5 char before next send - 1.75 ms
2023-09-11 12:12:05,585 DEBUG logging:102 New Transaction state "SENDING"
2023-09-11 12:12:05,585 DEBUG logging:102 Changing transaction state from "SENDING" to "WAITING FOR REPLY"
2023-09-11 12:12:11,740 DEBUG logging:102 Transaction failed. (Modbus Error: [Invalid Message] No response received, expected at least 4 bytes (0 received)) 
2023-09-11 12:12:11,740 DEBUG logging:102 Processing: 
2023-09-11 12:12:11,740 DEBUG logging:102 Getting transaction 0
2023-09-11 12:12:11,740 DEBUG logging:102 Changing transaction state from "PROCESSING REPLY" to "TRANSACTION_COMPLETE"
2023-09-11 12:12:11,776 DEBUG logging:102 Current transaction state - TRANSACTION_COMPLETE
2023-09-11 12:12:11,777 DEBUG logging:102 Running transaction 3
2023-09-11 12:12:11,777 DEBUG logging:102 SEND: 0x1 0x3 0x4 0x2 0x0 0x1 0x24 0xfa
2023-09-11 12:12:11,777 DEBUG logging:102 Changing state to IDLE - Last Frame End - None Current Time stamp - 1694427131.777197
2023-09-11 12:12:11,779 DEBUG logging:102 New Transaction state "SENDING"
2023-09-11 12:12:11,780 DEBUG logging:102 Changing transaction state from "SENDING" to "WAITING FOR REPLY"
2023-09-11 12:12:11,820 DEBUG logging:102 Changing transaction state from "WAITING FOR REPLY" to "PROCESSING REPLY"
2023-09-11 12:12:11,821 DEBUG logging:102 RECV: 0x1 0x3 0x2 0x0 0x0 0xb8 0x44
2023-09-11 12:12:11,821 DEBUG logging:102 Processing: 0x1 0x3 0x2 0x0 0x0 0xb8 0x44
2023-09-11 12:12:11,821 DEBUG logging:102 Getting Frame - 0x3 0x2 0x0 0x0
2023-09-11 12:12:11,821 DEBUG logging:102 Factory Response[ReadHoldingRegistersResponse': 3]
2023-09-11 12:12:11,821 DEBUG logging:102 Frame advanced, resetting header!!
2023-09-11 12:12:11,821 DEBUG logging:102 Adding transaction 1
2023-09-11 12:12:11,821 DEBUG logging:102 Getting transaction 1
2023-09-11 12:12:11,821 DEBUG logging:102 Changing transaction state from "PROCESSING REPLY" to "TRANSACTION_COMPLETE"
2023-09-11 12:12:31,284 DEBUG logging:102 Current transaction state - IDLE
2023-09-11 12:12:31,284 DEBUG logging:102 Running transaction 1
2023-09-11 12:12:31,286 DEBUG logging:102 SEND: 0x1 0x3 0x4 0x2 0x0 0x1 0x24 0xfa
2023-09-11 12:12:31,286 DEBUG logging:102 New Transaction state "SENDING"
2023-09-11 12:12:31,286 DEBUG logging:102 Changing transaction state from "SENDING" to "WAITING FOR REPLY"
2023-09-11 12:12:31,328 DEBUG logging:102 Changing transaction state from "WAITING FOR REPLY" to "PROCESSING REPLY"
2023-09-11 12:12:31,328 DEBUG logging:102 RECV: 0x1 0x3 0x2 0x0 0x0 0xb8 0x44
2023-09-11 12:12:31,328 DEBUG logging:102 Processing: 0x1 0x3 0x2 0x0 0x0 0xb8 0x44
2023-09-11 12:12:31,328 DEBUG logging:102 Getting Frame - 0x3 0x2 0x0 0x0
2023-09-11 12:12:31,328 DEBUG logging:102 Factory Response[ReadHoldingRegistersResponse': 3]
2023-09-11 12:12:31,328 DEBUG logging:102 Frame advanced, resetting header!!
2023-09-11 12:12:31,328 DEBUG logging:102 Adding transaction 1
2023-09-11 12:12:31,328 DEBUG logging:102 Getting transaction 1
2023-09-11 12:12:31,329 DEBUG logging:102 Changing transaction state from "PROCESSING REPLY" to "TRANSACTION_COMPLETE"
2023-09-11 12:12:31,329 DEBUG logging:102 Current transaction state - TRANSACTION_COMPLETE
2023-09-11 12:12:31,329 DEBUG logging:102 Running transaction 2
2023-09-11 12:12:31,329 DEBUG logging:102 SEND: 0x0 0x10 0x4 0x2 0x0 0x2 0x4 0x0 0x0 0xea 0x60 0xb 0x2
2023-09-11 12:12:31,329 DEBUG logging:102 Changing state to IDLE - Last Frame End - 1694427151.328069 Current Time stamp - 1694427151.329102
2023-09-11 12:12:31,329 DEBUG logging:102 Waiting for 3.5 char before next send - 1.75 ms
2023-09-11 12:12:31,331 DEBUG logging:102 New Transaction state "SENDING"
2023-09-11 12:12:31,331 DEBUG logging:102 Changing transaction state from "SENDING" to "WAITING FOR REPLY"
2023-09-11 12:12:37,473 DEBUG logging:102 Transaction failed. (Modbus Error: [Invalid Message] No response received, expected at least 4 bytes (0 received)) 
2023-09-11 12:12:37,473 DEBUG logging:102 Processing: 
2023-09-11 12:12:37,473 DEBUG logging:102 Getting transaction 0
2023-09-11 12:12:37,473 DEBUG logging:102 Changing transaction state from "PROCESSING REPLY" to "TRANSACTION_COMPLETE"
2023-09-11 12:12:37,516 DEBUG logging:102 Current transaction state - TRANSACTION_COMPLETE
2023-09-11 12:12:37,516 DEBUG logging:102 Running transaction 3
2023-09-11 12:12:37,517 DEBUG logging:102 SEND: 0x1 0x3 0x4 0x2 0x0 0x1 0x24 0xfa
2023-09-11 12:12:37,517 DEBUG logging:102 Changing state to IDLE - Last Frame End - None Current Time stamp - 1694427157.517394
2023-09-11 12:12:37,519 DEBUG logging:102 New Transaction state "SENDING"
2023-09-11 12:12:37,519 DEBUG logging:102 Changing transaction state from "SENDING" to "WAITING FOR REPLY"
2023-09-11 12:12:37,560 DEBUG logging:102 Changing transaction state from "WAITING FOR REPLY" to "PROCESSING REPLY"
2023-09-11 12:12:37,560 DEBUG logging:102 RECV: 0x1 0x3 0x2 0x0 0x0 0xb8 0x44
2023-09-11 12:12:37,560 DEBUG logging:102 Processing: 0x1 0x3 0x2 0x0 0x0 0xb8 0x44
2023-09-11 12:12:37,561 DEBUG logging:102 Getting Frame - 0x3 0x2 0x0 0x0
2023-09-11 12:12:37,561 DEBUG logging:102 Factory Response[ReadHoldingRegistersResponse': 3]
2023-09-11 12:12:37,561 DEBUG logging:102 Frame advanced, resetting header!!
2023-09-11 12:12:37,561 DEBUG logging:102 Adding transaction 1
2023-09-11 12:12:37,561 DEBUG logging:102 Getting transaction 1
2023-09-11 12:12:37,561 DEBUG logging:102 Changing transaction state from "PROCESSING REPLY" to "TRANSACTION_COMPLETE"
2023-09-11 12:16:09,081 DEBUG logging:102 Current transaction state - IDLE
2023-09-11 12:16:09,082 DEBUG logging:102 Running transaction 1
2023-09-11 12:16:09,082 DEBUG logging:102 SEND: 0x1 0x3 0x4 0x2 0x0 0x1 0x24 0xfa
2023-09-11 12:16:09,082 DEBUG logging:102 New Transaction state "SENDING"
2023-09-11 12:16:09,082 DEBUG logging:102 Changing transaction state from "SENDING" to "WAITING FOR REPLY"
2023-09-11 12:16:09,123 DEBUG logging:102 Changing transaction state from "WAITING FOR REPLY" to "PROCESSING REPLY"
2023-09-11 12:16:09,123 DEBUG logging:102 RECV: 0x1 0x3 0x2 0x0 0x0 0xb8 0x44
2023-09-11 12:16:09,123 DEBUG logging:102 Processing: 0x1 0x3 0x2 0x0 0x0 0xb8 0x44
2023-09-11 12:16:09,124 DEBUG logging:102 Getting Frame - 0x3 0x2 0x0 0x0
2023-09-11 12:16:09,124 DEBUG logging:102 Factory Response[ReadHoldingRegistersResponse': 3]
2023-09-11 12:16:09,124 DEBUG logging:102 Frame advanced, resetting header!!
2023-09-11 12:16:09,124 DEBUG logging:102 Adding transaction 1
2023-09-11 12:16:09,124 DEBUG logging:102 Getting transaction 1
2023-09-11 12:16:09,124 DEBUG logging:102 Changing transaction state from "PROCESSING REPLY" to "TRANSACTION_COMPLETE"
2023-09-11 12:16:09,124 DEBUG logging:102 Current transaction state - TRANSACTION_COMPLETE
2023-09-11 12:16:09,124 DEBUG logging:102 Running transaction 2
2023-09-11 12:16:56,407 DEBUG logging:102 Current transaction state - IDLE
2023-09-11 12:16:56,407 DEBUG logging:102 Running transaction 1
2023-09-11 12:16:56,407 DEBUG logging:102 SEND: 0x1 0x3 0x4 0x2 0x0 0x1 0x24 0xfa
2023-09-11 12:16:56,407 DEBUG logging:102 New Transaction state "SENDING"
2023-09-11 12:16:56,408 DEBUG logging:102 Changing transaction state from "SENDING" to "WAITING FOR REPLY"
2023-09-11 12:16:56,449 DEBUG logging:102 Changing transaction state from "WAITING FOR REPLY" to "PROCESSING REPLY"
2023-09-11 12:16:56,449 DEBUG logging:102 RECV: 0x1 0x3 0x2 0x0 0x0 0xb8 0x44
2023-09-11 12:16:56,449 DEBUG logging:102 Processing: 0x1 0x3 0x2 0x0 0x0 0xb8 0x44
2023-09-11 12:16:56,449 DEBUG logging:102 Getting Frame - 0x3 0x2 0x0 0x0
2023-09-11 12:16:56,449 DEBUG logging:102 Factory Response[ReadHoldingRegistersResponse': 3]
2023-09-11 12:16:56,450 DEBUG logging:102 Frame advanced, resetting header!!
2023-09-11 12:16:56,450 DEBUG logging:102 Adding transaction 1
2023-09-11 12:16:56,450 DEBUG logging:102 Getting transaction 1
2023-09-11 12:16:56,450 DEBUG logging:102 Changing transaction state from "PROCESSING REPLY" to "TRANSACTION_COMPLETE"
2023-09-11 12:16:56,450 DEBUG logging:102 Current transaction state - TRANSACTION_COMPLETE
2023-09-11 12:16:56,450 DEBUG logging:102 Running transaction 2
2023-09-11 12:17:39,865 DEBUG logging:102 Current transaction state - IDLE
2023-09-11 12:17:39,865 DEBUG logging:102 Running transaction 1
2023-09-11 12:17:39,865 DEBUG logging:102 SEND: 0x1 0x3 0x4 0x2 0x0 0x1 0x24 0xfa
2023-09-11 12:17:39,865 DEBUG logging:102 New Transaction state "SENDING"
2023-09-11 12:17:39,866 DEBUG logging:102 Changing transaction state from "SENDING" to "WAITING FOR REPLY"
2023-09-11 12:17:39,907 DEBUG logging:102 Changing transaction state from "WAITING FOR REPLY" to "PROCESSING REPLY"
2023-09-11 12:17:39,908 DEBUG logging:102 RECV: 0x1 0x3 0x2 0x0 0x0 0xb8 0x44
2023-09-11 12:17:39,908 DEBUG logging:102 Processing: 0x1 0x3 0x2 0x0 0x0 0xb8 0x44
2023-09-11 12:17:39,908 DEBUG logging:102 Getting Frame - 0x3 0x2 0x0 0x0
2023-09-11 12:17:39,908 DEBUG logging:102 Factory Response[ReadHoldingRegistersResponse': 3]
2023-09-11 12:17:39,908 DEBUG logging:102 Frame advanced, resetting header!!
2023-09-11 12:17:39,908 DEBUG logging:102 Adding transaction 1
2023-09-11 12:17:39,908 DEBUG logging:102 Getting transaction 1
2023-09-11 12:17:39,908 DEBUG logging:102 Changing transaction state from "PROCESSING REPLY" to "TRANSACTION_COMPLETE"
2023-09-11 12:17:39,909 DEBUG logging:102 Current transaction state - TRANSACTION_COMPLETE
2023-09-11 12:17:39,909 DEBUG logging:102 Running transaction 2
2023-09-11 12:23:12,393 DEBUG logging:102 Current transaction state - IDLE
2023-09-11 12:23:12,393 DEBUG logging:102 Running transaction 1
2023-09-11 12:23:12,393 DEBUG logging:102 SEND: 0x1 0x3 0x4 0x2 0x0 0x1 0x24 0xfa
2023-09-11 12:23:12,393 DEBUG logging:102 New Transaction state "SENDING"
2023-09-11 12:23:12,394 DEBUG logging:102 Changing transaction state from "SENDING" to "WAITING FOR REPLY"
2023-09-11 12:23:12,435 DEBUG logging:102 Changing transaction state from "WAITING FOR REPLY" to "PROCESSING REPLY"
2023-09-11 12:23:12,436 DEBUG logging:102 RECV: 0x1 0x3 0x2 0x0 0x0 0xb8 0x44
2023-09-11 12:23:12,436 DEBUG logging:102 Processing: 0x1 0x3 0x2 0x0 0x0 0xb8 0x44
2023-09-11 12:23:12,436 DEBUG logging:102 Getting Frame - 0x3 0x2 0x0 0x0
2023-09-11 12:23:12,436 DEBUG logging:102 Factory Response[ReadHoldingRegistersResponse': 3]
2023-09-11 12:23:12,436 DEBUG logging:102 Frame advanced, resetting header!!
2023-09-11 12:23:12,436 DEBUG logging:102 Adding transaction 1
2023-09-11 12:23:12,436 DEBUG logging:102 Getting transaction 1
2023-09-11 12:23:12,436 DEBUG logging:102 Changing transaction state from "PROCESSING REPLY" to "TRANSACTION_COMPLETE"
2023-09-11 12:23:33,390 DEBUG logging:102 Current transaction state - IDLE
2023-09-11 12:23:33,391 DEBUG logging:102 Running transaction 1
2023-09-11 12:23:33,391 DEBUG logging:102 SEND: 0x1 0x3 0x4 0x2 0x0 0x1 0x24 0xfa
2023-09-11 12:23:33,391 DEBUG logging:102 New Transaction state "SENDING"
2023-09-11 12:23:33,391 DEBUG logging:102 Changing transaction state from "SENDING" to "WAITING FOR REPLY"
2023-09-11 12:23:33,433 DEBUG logging:102 Changing transaction state from "WAITING FOR REPLY" to "PROCESSING REPLY"
2023-09-11 12:23:33,433 DEBUG logging:102 RECV: 0x1 0x3 0x2 0x0 0x0 0xb8 0x44
2023-09-11 12:23:33,433 DEBUG logging:102 Processing: 0x1 0x3 0x2 0x0 0x0 0xb8 0x44
2023-09-11 12:23:33,433 DEBUG logging:102 Getting Frame - 0x3 0x2 0x0 0x0
2023-09-11 12:23:33,433 DEBUG logging:102 Factory Response[ReadHoldingRegistersResponse': 3]
2023-09-11 12:23:33,434 DEBUG logging:102 Frame advanced, resetting header!!
2023-09-11 12:23:33,434 DEBUG logging:102 Adding transaction 1
2023-09-11 12:23:33,434 DEBUG logging:102 Getting transaction 1
2023-09-11 12:23:33,434 DEBUG logging:102 Changing transaction state from "PROCESSING REPLY" to "TRANSACTION_COMPLETE"
2023-09-11 12:23:33,434 DEBUG logging:102 Current transaction state - TRANSACTION_COMPLETE
2023-09-11 12:23:33,434 DEBUG logging:102 Running transaction 2
2023-09-11 12:23:33,434 DEBUG logging:102 SEND: 0x0 0x10 0x4 0x2 0x0 0x2 0x4 0x0 0x0 0xea 0x60 0xb 0x2
2023-09-11 12:23:33,434 DEBUG logging:102 Changing state to IDLE - Last Frame End - 1694427813.433677 Current Time stamp - 1694427813.434682
2023-09-11 12:23:33,434 DEBUG logging:102 Waiting for 3.5 char before next send - 1.75 ms
2023-09-11 12:23:33,437 DEBUG logging:102 New Transaction state "SENDING"
2023-09-11 12:23:33,437 DEBUG logging:102 Changing transaction state from "SENDING" to "WAITING FOR REPLY"
2023-09-11 12:23:39,579 DEBUG logging:102 Transaction failed. (Modbus Error: [Invalid Message] No response received, expected at least 4 bytes (0 received)) 
2023-09-11 12:23:39,579 DEBUG logging:102 Processing: 
2023-09-11 12:23:39,579 DEBUG logging:102 Getting transaction 0
2023-09-11 12:23:39,579 DEBUG logging:102 Changing transaction state from "PROCESSING REPLY" to "TRANSACTION_COMPLETE"
2023-09-11 12:23:39,618 DEBUG logging:102 Current transaction state - TRANSACTION_COMPLETE
2023-09-11 12:23:39,618 DEBUG logging:102 Running transaction 3
2023-09-11 12:23:39,618 DEBUG logging:102 SEND: 0x1 0x3 0x4 0x2 0x0 0x1 0x24 0xfa
2023-09-11 12:23:39,618 DEBUG logging:102 Changing state to IDLE - Last Frame End - None Current Time stamp - 1694427819.618653
2023-09-11 12:23:39,621 DEBUG logging:102 New Transaction state "SENDING"
2023-09-11 12:23:39,621 DEBUG logging:102 Changing transaction state from "SENDING" to "WAITING FOR REPLY"
2023-09-11 12:23:39,662 DEBUG logging:102 Changing transaction state from "WAITING FOR REPLY" to "PROCESSING REPLY"
2023-09-11 12:23:39,662 DEBUG logging:102 RECV: 0x1 0x3 0x2 0x0 0x0 0xb8 0x44
2023-09-11 12:23:39,662 DEBUG logging:102 Processing: 0x1 0x3 0x2 0x0 0x0 0xb8 0x44
2023-09-11 12:23:39,662 DEBUG logging:102 Getting Frame - 0x3 0x2 0x0 0x0
2023-09-11 12:23:39,662 DEBUG logging:102 Factory Response[ReadHoldingRegistersResponse': 3]
2023-09-11 12:23:39,662 DEBUG logging:102 Frame advanced, resetting header!!
2023-09-11 12:23:39,662 DEBUG logging:102 Adding transaction 1
2023-09-11 12:23:39,663 DEBUG logging:102 Getting transaction 1
2023-09-11 12:23:39,663 DEBUG logging:102 Changing transaction state from "PROCESSING REPLY" to "TRANSACTION_COMPLETE"
2023-09-11 12:23:51,131 DEBUG logging:102 Current transaction state - IDLE
2023-09-11 12:23:51,131 DEBUG logging:102 Running transaction 1
2023-09-11 12:23:51,132 DEBUG logging:102 SEND: 0x1 0x3 0x4 0x2 0x0 0x1 0x24 0xfa
2023-09-11 12:23:51,132 DEBUG logging:102 New Transaction state "SENDING"
2023-09-11 12:23:51,132 DEBUG logging:102 Changing transaction state from "SENDING" to "WAITING FOR REPLY"
2023-09-11 12:23:51,173 DEBUG logging:102 Changing transaction state from "WAITING FOR REPLY" to "PROCESSING REPLY"
2023-09-11 12:23:51,173 DEBUG logging:102 RECV: 0x1 0x3 0x2 0x0 0x0 0xb8 0x44
2023-09-11 12:23:51,174 DEBUG logging:102 Processing: 0x1 0x3 0x2 0x0 0x0 0xb8 0x44
2023-09-11 12:23:51,174 DEBUG logging:102 Getting Frame - 0x3 0x2 0x0 0x0
2023-09-11 12:23:51,174 DEBUG logging:102 Factory Response[ReadHoldingRegistersResponse': 3]
2023-09-11 12:23:51,174 DEBUG logging:102 Frame advanced, resetting header!!
2023-09-11 12:23:51,174 DEBUG logging:102 Adding transaction 1
2023-09-11 12:23:51,174 DEBUG logging:102 Getting transaction 1
2023-09-11 12:23:51,174 DEBUG logging:102 Changing transaction state from "PROCESSING REPLY" to "TRANSACTION_COMPLETE"
2023-09-11 12:23:51,174 DEBUG logging:102 Current transaction state - TRANSACTION_COMPLETE
2023-09-11 12:23:51,174 DEBUG logging:102 Running transaction 2
2023-09-11 12:23:51,174 DEBUG logging:102 SEND: 0x0 0x10 0x4 0x2 0x0 0x2 0x4 0x0 0x0 0xea 0x60 0xb 0x2
2023-09-11 12:23:51,174 DEBUG logging:102 Changing state to IDLE - Last Frame End - 1694427831.173658 Current Time stamp - 1694427831.174711
2023-09-11 12:23:51,175 DEBUG logging:102 Waiting for 3.5 char before next send - 1.75 ms
2023-09-11 12:23:51,177 DEBUG logging:102 New Transaction state "SENDING"
2023-09-11 12:23:51,177 DEBUG logging:102 Changing transaction state from "SENDING" to "WAITING FOR REPLY"
2023-09-11 12:23:57,331 DEBUG logging:102 Transaction failed. (Modbus Error: [Invalid Message] No response received, expected at least 4 bytes (0 received)) 
2023-09-11 12:23:57,332 DEBUG logging:102 Processing: 
2023-09-11 12:23:57,332 DEBUG logging:102 Getting transaction 0
2023-09-11 12:23:57,332 DEBUG logging:102 Changing transaction state from "PROCESSING REPLY" to "TRANSACTION_COMPLETE"
2023-09-11 12:23:57,367 DEBUG logging:102 Current transaction state - TRANSACTION_COMPLETE
2023-09-11 12:23:57,367 DEBUG logging:102 Running transaction 3
2023-09-11 12:23:57,368 DEBUG logging:102 SEND: 0x1 0x3 0x4 0x2 0x0 0x1 0x24 0xfa
2023-09-11 12:23:57,368 DEBUG logging:102 Changing state to IDLE - Last Frame End - None Current Time stamp - 1694427837.368121
2023-09-11 12:23:57,370 DEBUG logging:102 New Transaction state "SENDING"
2023-09-11 12:23:57,370 DEBUG logging:102 Changing transaction state from "SENDING" to "WAITING FOR REPLY"
2023-09-11 12:23:57,412 DEBUG logging:102 Changing transaction state from "WAITING FOR REPLY" to "PROCESSING REPLY"
2023-09-11 12:23:57,413 DEBUG logging:102 RECV: 0x1 0x3 0x2 0x0 0x0 0xb8 0x44
2023-09-11 12:23:57,413 DEBUG logging:102 Processing: 0x1 0x3 0x2 0x0 0x0 0xb8 0x44
2023-09-11 12:23:57,413 DEBUG logging:102 Getting Frame - 0x3 0x2 0x0 0x0
2023-09-11 12:23:57,413 DEBUG logging:102 Factory Response[ReadHoldingRegistersResponse': 3]
2023-09-11 12:23:57,413 DEBUG logging:102 Frame advanced, resetting header!!
2023-09-11 12:23:57,413 DEBUG logging:102 Adding transaction 1
2023-09-11 12:23:57,413 DEBUG logging:102 Getting transaction 1
2023-09-11 12:23:57,413 DEBUG logging:102 Changing transaction state from "PROCESSING REPLY" to "TRANSACTION_COMPLETE"
2023-09-11 12:42:30,561 DEBUG logging:102 Current transaction state - IDLE
2023-09-11 12:42:30,561 DEBUG logging:102 Running transaction 1
2023-09-11 12:42:30,561 DEBUG logging:102 SEND: 0x1 0x3 0x4 0x3 0x0 0x1 0x75 0x3a
2023-09-11 12:42:30,561 DEBUG logging:102 New Transaction state "SENDING"
2023-09-11 12:42:30,562 DEBUG logging:102 Changing transaction state from "SENDING" to "WAITING FOR REPLY"
2023-09-11 12:42:30,603 DEBUG logging:102 Changing transaction state from "WAITING FOR REPLY" to "PROCESSING REPLY"
2023-09-11 12:42:30,603 DEBUG logging:102 RECV: 0x1 0x3 0x2 0xea 0x60 0xf7 0xc
2023-09-11 12:42:30,603 DEBUG logging:102 Processing: 0x1 0x3 0x2 0xea 0x60 0xf7 0xc
2023-09-11 12:42:30,603 DEBUG logging:102 Getting Frame - 0x3 0x2 0xea 0x60
2023-09-11 12:42:30,604 DEBUG logging:102 Factory Response[ReadHoldingRegistersResponse': 3]
2023-09-11 12:42:30,604 DEBUG logging:102 Frame advanced, resetting header!!
2023-09-11 12:42:30,604 DEBUG logging:102 Adding transaction 1
2023-09-11 12:42:30,604 DEBUG logging:102 Getting transaction 1
2023-09-11 12:42:30,604 DEBUG logging:102 Changing transaction state from "PROCESSING REPLY" to "TRANSACTION_COMPLETE"
2023-09-11 12:42:30,604 DEBUG logging:102 Current transaction state - TRANSACTION_COMPLETE
2023-09-11 12:42:30,604 DEBUG logging:102 Running transaction 2
2023-09-11 12:42:30,604 DEBUG logging:102 SEND: 0x0 0x10 0x4 0x3 0x0 0x2 0x4 0x0 0x0 0xea 0x60 0xca 0xce
2023-09-11 12:42:30,604 DEBUG logging:102 Changing state to IDLE - Last Frame End - 1694428950.603405 Current Time stamp - 1694428950.60445
2023-09-11 12:42:30,604 DEBUG logging:102 Waiting for 3.5 char before next send - 1.75 ms
2023-09-11 12:42:30,607 DEBUG logging:102 New Transaction state "SENDING"
2023-09-11 12:42:30,607 DEBUG logging:102 Changing transaction state from "SENDING" to "WAITING FOR REPLY"
2023-09-11 12:42:36,757 DEBUG logging:102 Transaction failed. (Modbus Error: [Invalid Message] No response received, expected at least 4 bytes (0 received)) 
2023-09-11 12:42:36,757 DEBUG logging:102 Processing: 
2023-09-11 12:42:36,758 DEBUG logging:102 Getting transaction 0
2023-09-11 12:42:36,758 DEBUG logging:102 Changing transaction state from "PROCESSING REPLY" to "TRANSACTION_COMPLETE"
2023-09-11 12:42:36,793 DEBUG logging:102 Current transaction state - TRANSACTION_COMPLETE
2023-09-11 12:42:36,793 DEBUG logging:102 Running transaction 3
2023-09-11 12:42:36,793 DEBUG logging:102 SEND: 0x1 0x3 0x4 0x3 0x0 0x1 0x75 0x3a
2023-09-11 12:42:36,793 DEBUG logging:102 Changing state to IDLE - Last Frame End - None Current Time stamp - 1694428956.793323
2023-09-11 12:42:36,795 DEBUG logging:102 New Transaction state "SENDING"
2023-09-11 12:42:36,795 DEBUG logging:102 Changing transaction state from "SENDING" to "WAITING FOR REPLY"
2023-09-11 12:42:36,836 DEBUG logging:102 Changing transaction state from "WAITING FOR REPLY" to "PROCESSING REPLY"
2023-09-11 12:42:36,837 DEBUG logging:102 RECV: 0x1 0x3 0x2 0xea 0x60 0xf7 0xc
2023-09-11 12:42:36,837 DEBUG logging:102 Processing: 0x1 0x3 0x2 0xea 0x60 0xf7 0xc
2023-09-11 12:42:36,837 DEBUG logging:102 Getting Frame - 0x3 0x2 0xea 0x60
2023-09-11 12:42:36,837 DEBUG logging:102 Factory Response[ReadHoldingRegistersResponse': 3]
2023-09-11 12:42:36,837 DEBUG logging:102 Frame advanced, resetting header!!
2023-09-11 12:42:36,837 DEBUG logging:102 Adding transaction 1
2023-09-11 12:42:36,837 DEBUG logging:102 Getting transaction 1
2023-09-11 12:42:36,837 DEBUG logging:102 Changing transaction state from "PROCESSING REPLY" to "TRANSACTION_COMPLETE"
2023-09-11 12:42:47,543 DEBUG logging:102 Current transaction state - IDLE
2023-09-11 12:42:47,543 DEBUG logging:102 Running transaction 1
2023-09-11 12:42:47,543 DEBUG logging:102 SEND: 0x1 0x3 0x4 0x3 0x0 0x1 0x75 0x3a
2023-09-11 12:42:47,543 DEBUG logging:102 New Transaction state "SENDING"
2023-09-11 12:42:47,544 DEBUG logging:102 Changing transaction state from "SENDING" to "WAITING FOR REPLY"
2023-09-11 12:42:47,585 DEBUG logging:102 Changing transaction state from "WAITING FOR REPLY" to "PROCESSING REPLY"
2023-09-11 12:42:47,586 DEBUG logging:102 RECV: 0x1 0x3 0x2 0xea 0x60 0xf7 0xc
2023-09-11 12:42:47,586 DEBUG logging:102 Processing: 0x1 0x3 0x2 0xea 0x60 0xf7 0xc
2023-09-11 12:42:47,586 DEBUG logging:102 Getting Frame - 0x3 0x2 0xea 0x60
2023-09-11 12:42:47,586 DEBUG logging:102 Factory Response[ReadHoldingRegistersResponse': 3]
2023-09-11 12:42:47,586 DEBUG logging:102 Frame advanced, resetting header!!
2023-09-11 12:42:47,586 DEBUG logging:102 Adding transaction 1
2023-09-11 12:42:47,586 DEBUG logging:102 Getting transaction 1
2023-09-11 12:42:47,586 DEBUG logging:102 Changing transaction state from "PROCESSING REPLY" to "TRANSACTION_COMPLETE"
2023-09-11 12:42:47,586 DEBUG logging:102 Current transaction state - TRANSACTION_COMPLETE
2023-09-11 12:42:47,586 DEBUG logging:102 Running transaction 2
2023-09-11 12:42:47,586 DEBUG logging:102 SEND: 0x0 0x10 0x4 0x3 0x0 0x2 0x4 0x0 0x0 0xfa 0x0 0xc7 0x26
2023-09-11 12:42:47,587 DEBUG logging:102 Changing state to IDLE - Last Frame End - 1694428967.585909 Current Time stamp - 1694428967.587438
2023-09-11 12:42:47,587 DEBUG logging:102 Waiting for 3.5 char before next send - 1.75 ms
2023-09-11 12:42:47,589 DEBUG logging:102 New Transaction state "SENDING"
2023-09-11 12:42:47,589 DEBUG logging:102 Changing transaction state from "SENDING" to "WAITING FOR REPLY"
2023-09-11 12:42:53,745 DEBUG logging:102 Transaction failed. (Modbus Error: [Invalid Message] No response received, expected at least 4 bytes (0 received)) 
2023-09-11 12:42:53,745 DEBUG logging:102 Processing: 
2023-09-11 12:42:53,745 DEBUG logging:102 Getting transaction 0
2023-09-11 12:42:53,745 DEBUG logging:102 Changing transaction state from "PROCESSING REPLY" to "TRANSACTION_COMPLETE"
2023-09-11 12:42:53,790 DEBUG logging:102 Current transaction state - TRANSACTION_COMPLETE
2023-09-11 12:42:53,790 DEBUG logging:102 Running transaction 3
2023-09-11 12:42:53,790 DEBUG logging:102 SEND: 0x1 0x3 0x4 0x3 0x0 0x1 0x75 0x3a
2023-09-11 12:42:53,790 DEBUG logging:102 Changing state to IDLE - Last Frame End - None Current Time stamp - 1694428973.790668
2023-09-11 12:42:53,792 DEBUG logging:102 New Transaction state "SENDING"
2023-09-11 12:42:53,792 DEBUG logging:102 Changing transaction state from "SENDING" to "WAITING FOR REPLY"
2023-09-11 12:42:53,834 DEBUG logging:102 Changing transaction state from "WAITING FOR REPLY" to "PROCESSING REPLY"
2023-09-11 12:42:53,834 DEBUG logging:102 RECV: 0x1 0x3 0x2 0xea 0x60 0xf7 0xc
2023-09-11 12:42:53,834 DEBUG logging:102 Processing: 0x1 0x3 0x2 0xea 0x60 0xf7 0xc
2023-09-11 12:42:53,834 DEBUG logging:102 Getting Frame - 0x3 0x2 0xea 0x60
2023-09-11 12:42:53,834 DEBUG logging:102 Factory Response[ReadHoldingRegistersResponse': 3]
2023-09-11 12:42:53,834 DEBUG logging:102 Frame advanced, resetting header!!
2023-09-11 12:42:53,834 DEBUG logging:102 Adding transaction 1
2023-09-11 12:42:53,834 DEBUG logging:102 Getting transaction 1
2023-09-11 12:42:53,834 DEBUG logging:102 Changing transaction state from "PROCESSING REPLY" to "TRANSACTION_COMPLETE"
2023-09-11 13:54:09,687 DEBUG logging:102 Current transaction state - IDLE
2023-09-11 13:54:09,687 DEBUG logging:102 Running transaction 1
2023-09-11 13:54:09,687 DEBUG logging:102 SEND: 0x1 0x5 0x7 0xd0 0xff 0x0 0x8c 0xb7
2023-09-11 13:54:09,688 DEBUG logging:102 New Transaction state "SENDING"
2023-09-11 13:54:09,688 DEBUG logging:102 Changing transaction state from "SENDING" to "WAITING FOR REPLY"
2023-09-11 13:54:09,730 DEBUG logging:102 Changing transaction state from "WAITING FOR REPLY" to "PROCESSING REPLY"
2023-09-11 13:54:09,730 DEBUG logging:102 RECV: 0x1 0x5 0x7 0xd0 0xff 0x0 0x8c 0xb7
2023-09-11 13:54:09,730 DEBUG logging:102 Processing: 0x1 0x5 0x7 0xd0 0xff 0x0 0x8c 0xb7
2023-09-11 13:54:09,730 DEBUG logging:102 Getting Frame - 0x5 0x7 0xd0 0xff 0x0
2023-09-11 13:54:09,730 DEBUG logging:102 Factory Response[WriteSingleCoilResponse': 5]
2023-09-11 13:54:09,730 DEBUG logging:102 Frame advanced, resetting header!!
2023-09-11 13:54:09,730 DEBUG logging:102 Adding transaction 1
2023-09-11 13:54:09,730 DEBUG logging:102 Getting transaction 1
2023-09-11 13:54:09,730 DEBUG logging:102 Changing transaction state from "PROCESSING REPLY" to "TRANSACTION_COMPLETE"
2023-09-11 13:54:11,732 DEBUG logging:102 Current transaction state - TRANSACTION_COMPLETE
2023-09-11 13:54:11,732 DEBUG logging:102 Running transaction 2
2023-09-11 13:54:11,732 DEBUG logging:102 SEND: 0x1 0x3 0x3 0xea 0x0 0x1 0xa5 0xba
2023-09-11 13:54:11,732 DEBUG logging:102 Changing state to IDLE - Last Frame End - 1694433249.730149 Current Time stamp - 1694433251.732664
2023-09-11 13:54:11,732 DEBUG logging:102 New Transaction state "SENDING"
2023-09-11 13:54:11,732 DEBUG logging:102 Changing transaction state from "SENDING" to "WAITING FOR REPLY"
2023-09-11 13:54:11,774 DEBUG logging:102 Changing transaction state from "WAITING FOR REPLY" to "PROCESSING REPLY"
2023-09-11 13:54:11,774 DEBUG logging:102 RECV: 0x1 0x3 0x2 0x0 0x3 0xf8 0x45
2023-09-11 13:54:11,774 DEBUG logging:102 Processing: 0x1 0x3 0x2 0x0 0x3 0xf8 0x45
2023-09-11 13:54:11,774 DEBUG logging:102 Getting Frame - 0x3 0x2 0x0 0x3
2023-09-11 13:54:11,774 DEBUG logging:102 Factory Response[ReadHoldingRegistersResponse': 3]
2023-09-11 13:54:11,774 DEBUG logging:102 Frame advanced, resetting header!!
2023-09-11 13:54:11,774 DEBUG logging:102 Adding transaction 1
2023-09-11 13:54:11,774 DEBUG logging:102 Getting transaction 1
2023-09-11 13:54:11,774 DEBUG logging:102 Changing transaction state from "PROCESSING REPLY" to "TRANSACTION_COMPLETE"
2023-09-11 13:54:11,774 DEBUG logging:102 Current transaction state - TRANSACTION_COMPLETE
2023-09-11 13:54:11,774 DEBUG logging:102 Running transaction 3
2023-09-11 13:54:11,774 DEBUG logging:102 SEND: 0x0 0x10 0x4 0x12 0x0 0x2 0x4 0x0 0x0 0x0 0x1 0x84 0x86
2023-09-11 13:54:11,774 DEBUG logging:102 Changing state to IDLE - Last Frame End - 1694433251.7744 Current Time stamp - 1694433251.774936
2023-09-11 13:54:11,774 DEBUG logging:102 Waiting for 3.5 char before next send - 1.75 ms
2023-09-11 13:54:11,778 DEBUG logging:102 New Transaction state "SENDING"
2023-09-11 13:54:11,778 DEBUG logging:102 Changing transaction state from "SENDING" to "WAITING FOR REPLY"
2023-09-11 13:54:17,917 DEBUG logging:102 Transaction failed. (Modbus Error: [Invalid Message] No response received, expected at least 4 bytes (0 received)) 
2023-09-11 13:54:17,917 DEBUG logging:102 Processing: 
2023-09-11 13:54:17,917 DEBUG logging:102 Getting transaction 0
2023-09-11 13:54:17,917 DEBUG logging:102 Changing transaction state from "PROCESSING REPLY" to "TRANSACTION_COMPLETE"
2023-09-11 13:54:19,961 DEBUG logging:102 Current transaction state - TRANSACTION_COMPLETE
2023-09-11 13:54:19,962 DEBUG logging:102 Running transaction 4
2023-09-11 13:54:19,962 DEBUG logging:102 SEND: 0x1 0x3 0x3 0xea 0x0 0x1 0xa5 0xba
2023-09-11 13:54:19,962 DEBUG logging:102 Changing state to IDLE - Last Frame End - None Current Time stamp - 1694433259.962586
2023-09-11 13:54:19,965 DEBUG logging:102 New Transaction state "SENDING"
2023-09-11 13:54:19,965 DEBUG logging:102 Changing transaction state from "SENDING" to "WAITING FOR REPLY"
2023-09-11 13:54:20,006 DEBUG logging:102 Changing transaction state from "WAITING FOR REPLY" to "PROCESSING REPLY"
2023-09-11 13:54:20,006 DEBUG logging:102 RECV: 0x1 0x3 0x2 0x0 0x3 0xf8 0x45
2023-09-11 13:54:20,006 DEBUG logging:102 Processing: 0x1 0x3 0x2 0x0 0x3 0xf8 0x45
2023-09-11 13:54:20,006 DEBUG logging:102 Getting Frame - 0x3 0x2 0x0 0x3
2023-09-11 13:54:20,006 DEBUG logging:102 Factory Response[ReadHoldingRegistersResponse': 3]
2023-09-11 13:54:20,006 DEBUG logging:102 Frame advanced, resetting header!!
2023-09-11 13:54:20,006 DEBUG logging:102 Adding transaction 1
2023-09-11 13:54:20,006 DEBUG logging:102 Getting transaction 1
2023-09-11 13:54:20,006 DEBUG logging:102 Changing transaction state from "PROCESSING REPLY" to "TRANSACTION_COMPLETE"
2023-09-11 13:54:20,006 DEBUG logging:102 Current transaction state - TRANSACTION_COMPLETE
2023-09-11 13:54:20,006 DEBUG logging:102 Running transaction 5
2023-09-11 13:54:20,006 DEBUG logging:102 SEND: 0x1 0x3 0x3 0xea 0x0 0x1 0xa5 0xba
2023-09-11 13:54:20,006 DEBUG logging:102 Changing state to IDLE - Last Frame End - 1694433260.00611 Current Time stamp - 1694433260.006631
2023-09-11 13:54:20,006 DEBUG logging:102 Waiting for 3.5 char before next send - 1.75 ms
2023-09-11 13:54:20,009 DEBUG logging:102 New Transaction state "SENDING"
2023-09-11 13:54:20,009 DEBUG logging:102 Changing transaction state from "SENDING" to "WAITING FOR REPLY"
2023-09-11 13:54:20,051 DEBUG logging:102 Changing transaction state from "WAITING FOR REPLY" to "PROCESSING REPLY"
2023-09-11 13:54:20,051 DEBUG logging:102 RECV: 0x1 0x3 0x2 0x0 0x3 0xf8 0x45
2023-09-11 13:54:20,051 DEBUG logging:102 Processing: 0x1 0x3 0x2 0x0 0x3 0xf8 0x45
2023-09-11 13:54:20,051 DEBUG logging:102 Getting Frame - 0x3 0x2 0x0 0x3
2023-09-11 13:54:20,051 DEBUG logging:102 Factory Response[ReadHoldingRegistersResponse': 3]
2023-09-11 13:54:20,051 DEBUG logging:102 Frame advanced, resetting header!!
2023-09-11 13:54:20,052 DEBUG logging:102 Adding transaction 1
2023-09-11 13:54:20,052 DEBUG logging:102 Getting transaction 1
2023-09-11 13:54:20,052 DEBUG logging:102 Changing transaction state from "PROCESSING REPLY" to "TRANSACTION_COMPLETE"
2023-09-11 13:54:20,052 DEBUG logging:102 Current transaction state - TRANSACTION_COMPLETE
2023-09-11 13:54:20,052 DEBUG logging:102 Running transaction 6
2023-09-11 13:54:20,052 DEBUG logging:102 SEND: 0x0 0x10 0x4 0x12 0x0 0x2 0x4 0x0 0x0 0x0 0x0 0x45 0x46
2023-09-11 13:54:20,052 DEBUG logging:102 Changing state to IDLE - Last Frame End - 1694433260.051121 Current Time stamp - 1694433260.05214
2023-09-11 13:54:20,052 DEBUG logging:102 Waiting for 3.5 char before next send - 1.75 ms
2023-09-11 13:54:20,054 DEBUG logging:102 New Transaction state "SENDING"
2023-09-11 13:54:20,054 DEBUG logging:102 Changing transaction state from "SENDING" to "WAITING FOR REPLY"
2023-09-11 13:54:26,069 DEBUG logging:102 No response received, Expected 8 bytes Received 0 bytes !!!!
2023-09-11 13:54:26,069 DEBUG logging:102 Changing transaction state from "WAITING FOR REPLY" to "PROCESSING REPLY"
2023-09-11 13:54:26,069 DEBUG logging:102 RECV: 
2023-09-11 13:54:26,069 DEBUG logging:102 Processing: 
2023-09-11 13:54:26,070 DEBUG logging:102 Getting transaction 0
2023-09-11 13:54:26,194 DEBUG logging:102 Changing transaction state from "PROCESSING REPLY" to "TRANSACTION_COMPLETE"
2023-09-11 13:54:28,229 DEBUG logging:102 Current transaction state - TRANSACTION_COMPLETE
2023-09-11 13:54:28,229 DEBUG logging:102 Running transaction 7
2023-09-11 13:54:28,230 DEBUG logging:102 SEND: 0x1 0x3 0x3 0xea 0x0 0x1 0xa5 0xba
2023-09-11 13:54:28,230 DEBUG logging:102 Changing state to IDLE - Last Frame End - None Current Time stamp - 1694433268.23092
2023-09-11 13:54:28,233 DEBUG logging:102 New Transaction state "SENDING"
2023-09-11 13:54:28,233 DEBUG logging:102 Changing transaction state from "SENDING" to "WAITING FOR REPLY"
2023-09-11 13:54:28,274 DEBUG logging:102 Changing transaction state from "WAITING FOR REPLY" to "PROCESSING REPLY"
2023-09-11 13:54:28,274 DEBUG logging:102 RECV: 0x1 0x3 0x2 0x0 0x3 0xf8 0x45
2023-09-11 13:54:28,274 DEBUG logging:102 Processing: 0x1 0x3 0x2 0x0 0x3 0xf8 0x45
2023-09-11 13:54:28,274 DEBUG logging:102 Getting Frame - 0x3 0x2 0x0 0x3
2023-09-11 13:54:28,274 DEBUG logging:102 Factory Response[ReadHoldingRegistersResponse': 3]
2023-09-11 13:54:28,275 DEBUG logging:102 Frame advanced, resetting header!!
2023-09-11 13:54:28,275 DEBUG logging:102 Adding transaction 1
2023-09-11 13:54:28,275 DEBUG logging:102 Getting transaction 1
2023-09-11 13:54:28,275 DEBUG logging:102 Changing transaction state from "PROCESSING REPLY" to "TRANSACTION_COMPLETE"
2023-09-11 13:54:28,275 DEBUG logging:102 Current transaction state - TRANSACTION_COMPLETE
2023-09-11 13:54:28,276 DEBUG logging:102 Running transaction 8
2023-09-11 13:54:28,276 DEBUG logging:102 SEND: 0x1 0x5 0x7 0xd0 0x0 0x0 0xcd 0x47
2023-09-11 13:54:28,276 DEBUG logging:102 Changing state to IDLE - Last Frame End - 1694433268.274838 Current Time stamp - 1694433268.276416
2023-09-11 13:54:28,276 DEBUG logging:102 Waiting for 3.5 char before next send - 1.75 ms
2023-09-11 13:54:28,278 DEBUG logging:102 New Transaction state "SENDING"
2023-09-11 13:54:28,278 DEBUG logging:102 Changing transaction state from "SENDING" to "WAITING FOR REPLY"
2023-09-11 13:54:28,320 DEBUG logging:102 Changing transaction state from "WAITING FOR REPLY" to "PROCESSING REPLY"
2023-09-11 13:54:28,320 DEBUG logging:102 RECV: 0x1 0x5 0x7 0xd0 0x0 0x0 0xcd 0x47
2023-09-11 13:54:28,320 DEBUG logging:102 Processing: 0x1 0x5 0x7 0xd0 0x0 0x0 0xcd 0x47
2023-09-11 13:54:28,320 DEBUG logging:102 Getting Frame - 0x5 0x7 0xd0 0x0 0x0
2023-09-11 13:54:28,320 DEBUG logging:102 Factory Response[WriteSingleCoilResponse': 5]
2023-09-11 13:54:28,320 DEBUG logging:102 Frame advanced, resetting header!!
2023-09-11 13:54:28,320 DEBUG logging:102 Adding transaction 1
2023-09-11 13:54:28,320 DEBUG logging:102 Getting transaction 1
2023-09-11 13:54:28,320 DEBUG logging:102 Changing transaction state from "PROCESSING REPLY" to "TRANSACTION_COMPLETE"
2023-09-11 13:54:49,632 DEBUG logging:102 Current transaction state - IDLE
2023-09-11 13:54:49,633 DEBUG logging:102 Running transaction 1
2023-09-11 13:54:49,633 DEBUG logging:102 SEND: 0x1 0x5 0x7 0xd0 0xff 0x0 0x8c 0xb7
2023-09-11 13:54:49,633 DEBUG logging:102 New Transaction state "SENDING"
2023-09-11 13:54:49,633 DEBUG logging:102 Changing transaction state from "SENDING" to "WAITING FOR REPLY"
2023-09-11 13:54:49,675 DEBUG logging:102 Changing transaction state from "WAITING FOR REPLY" to "PROCESSING REPLY"
2023-09-11 13:54:49,675 DEBUG logging:102 RECV: 0x1 0x5 0x7 0xd0 0xff 0x0 0x8c 0xb7
2023-09-11 13:54:49,675 DEBUG logging:102 Processing: 0x1 0x5 0x7 0xd0 0xff 0x0 0x8c 0xb7
2023-09-11 13:54:49,675 DEBUG logging:102 Getting Frame - 0x5 0x7 0xd0 0xff 0x0
2023-09-11 13:54:49,675 DEBUG logging:102 Factory Response[WriteSingleCoilResponse': 5]
2023-09-11 13:54:49,675 DEBUG logging:102 Frame advanced, resetting header!!
2023-09-11 13:54:49,675 DEBUG logging:102 Adding transaction 1
2023-09-11 13:54:49,675 DEBUG logging:102 Getting transaction 1
2023-09-11 13:54:49,675 DEBUG logging:102 Changing transaction state from "PROCESSING REPLY" to "TRANSACTION_COMPLETE"
2023-09-11 13:54:51,676 DEBUG logging:102 Current transaction state - TRANSACTION_COMPLETE
2023-09-11 13:54:51,676 DEBUG logging:102 Running transaction 2
2023-09-11 13:54:51,676 DEBUG logging:102 SEND: 0x1 0x3 0x3 0xea 0x0 0x1 0xa5 0xba
2023-09-11 13:54:51,676 DEBUG logging:102 Changing state to IDLE - Last Frame End - 1694433289.675179 Current Time stamp - 1694433291.676861
2023-09-11 13:54:51,676 DEBUG logging:102 New Transaction state "SENDING"
2023-09-11 13:54:51,677 DEBUG logging:102 Changing transaction state from "SENDING" to "WAITING FOR REPLY"
2023-09-11 13:54:51,718 DEBUG logging:102 Changing transaction state from "WAITING FOR REPLY" to "PROCESSING REPLY"
2023-09-11 13:54:51,718 DEBUG logging:102 RECV: 0x1 0x3 0x2 0x0 0x1 0x79 0x84
2023-09-11 13:54:51,718 DEBUG logging:102 Processing: 0x1 0x3 0x2 0x0 0x1 0x79 0x84
2023-09-11 13:54:51,718 DEBUG logging:102 Getting Frame - 0x3 0x2 0x0 0x1
2023-09-11 13:54:51,718 DEBUG logging:102 Factory Response[ReadHoldingRegistersResponse': 3]
2023-09-11 13:54:51,719 DEBUG logging:102 Frame advanced, resetting header!!
2023-09-11 13:54:51,719 DEBUG logging:102 Adding transaction 1
2023-09-11 13:54:51,719 DEBUG logging:102 Getting transaction 1
2023-09-11 13:54:51,719 DEBUG logging:102 Changing transaction state from "PROCESSING REPLY" to "TRANSACTION_COMPLETE"
2023-09-11 13:54:51,719 DEBUG logging:102 Current transaction state - TRANSACTION_COMPLETE
2023-09-11 13:54:51,719 DEBUG logging:102 Running transaction 3
2023-09-11 13:54:51,719 DEBUG logging:102 SEND: 0x0 0x10 0x4 0x12 0x0 0x2 0x4 0x0 0x0 0x0 0x0 0x45 0x46
2023-09-11 13:54:51,719 DEBUG logging:102 Changing state to IDLE - Last Frame End - 1694433291.718359 Current Time stamp - 1694433291.719806
2023-09-11 13:54:51,719 DEBUG logging:102 Waiting for 3.5 char before next send - 1.75 ms
2023-09-11 13:54:51,722 DEBUG logging:102 New Transaction state "SENDING"
2023-09-11 13:54:51,722 DEBUG logging:102 Changing transaction state from "SENDING" to "WAITING FOR REPLY"
2023-09-11 13:54:57,853 DEBUG logging:102 Transaction failed. (Modbus Error: [Invalid Message] No response received, expected at least 4 bytes (0 received)) 
2023-09-11 13:54:57,853 DEBUG logging:102 Processing: 
2023-09-11 13:54:57,853 DEBUG logging:102 Getting transaction 0
2023-09-11 13:54:57,853 DEBUG logging:102 Changing transaction state from "PROCESSING REPLY" to "TRANSACTION_COMPLETE"
2023-09-11 13:54:59,893 DEBUG logging:102 Current transaction state - TRANSACTION_COMPLETE
2023-09-11 13:54:59,893 DEBUG logging:102 Running transaction 4
2023-09-11 13:54:59,894 DEBUG logging:102 SEND: 0x1 0x3 0x3 0xea 0x0 0x1 0xa5 0xba
2023-09-11 13:54:59,894 DEBUG logging:102 Changing state to IDLE - Last Frame End - None Current Time stamp - 1694433299.894861
2023-09-11 13:54:59,897 DEBUG logging:102 New Transaction state "SENDING"
2023-09-11 13:54:59,897 DEBUG logging:102 Changing transaction state from "SENDING" to "WAITING FOR REPLY"
2023-09-11 13:54:59,938 DEBUG logging:102 Changing transaction state from "WAITING FOR REPLY" to "PROCESSING REPLY"
2023-09-11 13:54:59,938 DEBUG logging:102 RECV: 0x1 0x3 0x2 0x0 0x3 0xf8 0x45
2023-09-11 13:54:59,939 DEBUG logging:102 Processing: 0x1 0x3 0x2 0x0 0x3 0xf8 0x45
2023-09-11 13:54:59,939 DEBUG logging:102 Getting Frame - 0x3 0x2 0x0 0x3
2023-09-11 13:54:59,939 DEBUG logging:102 Factory Response[ReadHoldingRegistersResponse': 3]
2023-09-11 13:54:59,939 DEBUG logging:102 Frame advanced, resetting header!!
2023-09-11 13:54:59,939 DEBUG logging:102 Adding transaction 1
2023-09-11 13:54:59,939 DEBUG logging:102 Getting transaction 1
2023-09-11 13:54:59,939 DEBUG logging:102 Changing transaction state from "PROCESSING REPLY" to "TRANSACTION_COMPLETE"
2023-09-11 13:54:59,939 DEBUG logging:102 Current transaction state - TRANSACTION_COMPLETE
2023-09-11 13:54:59,939 DEBUG logging:102 Running transaction 5
2023-09-11 13:54:59,939 DEBUG logging:102 SEND: 0x1 0x3 0x3 0xea 0x0 0x1 0xa5 0xba
2023-09-11 13:54:59,939 DEBUG logging:102 Changing state to IDLE - Last Frame End - 1694433299.938788 Current Time stamp - 1694433299.939782
2023-09-11 13:54:59,939 DEBUG logging:102 Waiting for 3.5 char before next send - 1.75 ms
2023-09-11 13:54:59,942 DEBUG logging:102 New Transaction state "SENDING"
2023-09-11 13:54:59,942 DEBUG logging:102 Changing transaction state from "SENDING" to "WAITING FOR REPLY"
2023-09-11 13:54:59,984 DEBUG logging:102 Changing transaction state from "WAITING FOR REPLY" to "PROCESSING REPLY"
2023-09-11 13:54:59,984 DEBUG logging:102 RECV: 0x1 0x3 0x2 0x0 0x3 0xf8 0x45
2023-09-11 13:54:59,984 DEBUG logging:102 Processing: 0x1 0x3 0x2 0x0 0x3 0xf8 0x45
2023-09-11 13:54:59,984 DEBUG logging:102 Getting Frame - 0x3 0x2 0x0 0x3
2023-09-11 13:54:59,984 DEBUG logging:102 Factory Response[ReadHoldingRegistersResponse': 3]
2023-09-11 13:54:59,984 DEBUG logging:102 Frame advanced, resetting header!!
2023-09-11 13:54:59,984 DEBUG logging:102 Adding transaction 1
2023-09-11 13:54:59,984 DEBUG logging:102 Getting transaction 1
2023-09-11 13:54:59,984 DEBUG logging:102 Changing transaction state from "PROCESSING REPLY" to "TRANSACTION_COMPLETE"
2023-09-11 13:54:59,985 DEBUG logging:102 Current transaction state - TRANSACTION_COMPLETE
2023-09-11 13:54:59,985 DEBUG logging:102 Running transaction 6
2023-09-11 13:54:59,985 DEBUG logging:102 SEND: 0x0 0x10 0x4 0x12 0x0 0x2 0x4 0x0 0x0 0x0 0x0 0x45 0x46
2023-09-11 13:54:59,985 DEBUG logging:102 Changing state to IDLE - Last Frame End - 1694433299.984287 Current Time stamp - 1694433299.985548
2023-09-11 13:54:59,985 DEBUG logging:102 Waiting for 3.5 char before next send - 1.75 ms
2023-09-11 13:54:59,987 DEBUG logging:102 New Transaction state "SENDING"
2023-09-11 13:54:59,987 DEBUG logging:102 Changing transaction state from "SENDING" to "WAITING FOR REPLY"
2023-09-11 13:55:05,994 DEBUG logging:102 No response received, Expected 8 bytes Received 0 bytes !!!!
2023-09-11 13:55:05,994 DEBUG logging:102 Changing transaction state from "WAITING FOR REPLY" to "PROCESSING REPLY"
2023-09-11 13:55:05,994 DEBUG logging:102 RECV: 
2023-09-11 13:55:05,994 DEBUG logging:102 Processing: 
2023-09-11 13:55:05,994 DEBUG logging:102 Getting transaction 0
2023-09-11 13:55:06,121 DEBUG logging:102 Changing transaction state from "PROCESSING REPLY" to "TRANSACTION_COMPLETE"
2023-09-11 13:55:08,158 DEBUG logging:102 Current transaction state - TRANSACTION_COMPLETE
2023-09-11 13:55:08,158 DEBUG logging:102 Running transaction 7
2023-09-11 13:55:08,158 DEBUG logging:102 SEND: 0x1 0x3 0x3 0xea 0x0 0x1 0xa5 0xba
2023-09-11 13:55:08,158 DEBUG logging:102 Changing state to IDLE - Last Frame End - None Current Time stamp - 1694433308.158513
2023-09-11 13:55:08,161 DEBUG logging:102 New Transaction state "SENDING"
2023-09-11 13:55:08,161 DEBUG logging:102 Changing transaction state from "SENDING" to "WAITING FOR REPLY"
2023-09-11 13:55:08,203 DEBUG logging:102 Changing transaction state from "WAITING FOR REPLY" to "PROCESSING REPLY"
2023-09-11 13:55:08,203 DEBUG logging:102 RECV: 0x1 0x3 0x2 0x0 0x3 0xf8 0x45
2023-09-11 13:55:08,203 DEBUG logging:102 Processing: 0x1 0x3 0x2 0x0 0x3 0xf8 0x45
2023-09-11 13:55:08,203 DEBUG logging:102 Getting Frame - 0x3 0x2 0x0 0x3
2023-09-11 13:55:08,203 DEBUG logging:102 Factory Response[ReadHoldingRegistersResponse': 3]
2023-09-11 13:55:08,203 DEBUG logging:102 Frame advanced, resetting header!!
2023-09-11 13:55:08,204 DEBUG logging:102 Adding transaction 1
2023-09-11 13:55:08,204 DEBUG logging:102 Getting transaction 1
2023-09-11 13:55:08,204 DEBUG logging:102 Changing transaction state from "PROCESSING REPLY" to "TRANSACTION_COMPLETE"
2023-09-11 13:55:08,204 DEBUG logging:102 Current transaction state - TRANSACTION_COMPLETE
2023-09-11 13:55:08,204 DEBUG logging:102 Running transaction 8
2023-09-11 13:55:08,204 DEBUG logging:102 SEND: 0x1 0x5 0x7 0xd0 0x0 0x0 0xcd 0x47
2023-09-11 13:55:08,204 DEBUG logging:102 Changing state to IDLE - Last Frame End - 1694433308.203147 Current Time stamp - 1694433308.204173
2023-09-11 13:55:08,204 DEBUG logging:102 Waiting for 3.5 char before next send - 1.75 ms
2023-09-11 13:55:08,206 DEBUG logging:102 New Transaction state "SENDING"
2023-09-11 13:55:08,207 DEBUG logging:102 Changing transaction state from "SENDING" to "WAITING FOR REPLY"
2023-09-11 13:55:08,248 DEBUG logging:102 Changing transaction state from "WAITING FOR REPLY" to "PROCESSING REPLY"
2023-09-11 13:55:08,248 DEBUG logging:102 RECV: 0x1 0x5 0x7 0xd0 0x0 0x0 0xcd 0x47
2023-09-11 13:55:08,248 DEBUG logging:102 Processing: 0x1 0x5 0x7 0xd0 0x0 0x0 0xcd 0x47
2023-09-11 13:55:08,248 DEBUG logging:102 Getting Frame - 0x5 0x7 0xd0 0x0 0x0
2023-09-11 13:55:08,248 DEBUG logging:102 Factory Response[WriteSingleCoilResponse': 5]
2023-09-11 13:55:08,248 DEBUG logging:102 Frame advanced, resetting header!!
2023-09-11 13:55:08,248 DEBUG logging:102 Adding transaction 1
2023-09-11 13:55:08,248 DEBUG logging:102 Getting transaction 1
2023-09-11 13:55:08,248 DEBUG logging:102 Changing transaction state from "PROCESSING REPLY" to "TRANSACTION_COMPLETE"
2023-09-11 13:59:11,333 DEBUG logging:102 Current transaction state - IDLE
2023-09-11 13:59:11,333 DEBUG logging:102 Running transaction 1
2023-09-11 13:59:11,333 DEBUG logging:102 SEND: 0x1 0x5 0x7 0xd0 0xff 0x0 0x8c 0xb7
2023-09-11 13:59:11,333 DEBUG logging:102 New Transaction state "SENDING"
2023-09-11 13:59:11,335 DEBUG logging:102 Changing transaction state from "SENDING" to "WAITING FOR REPLY"
2023-09-11 13:59:11,376 DEBUG logging:102 Changing transaction state from "WAITING FOR REPLY" to "PROCESSING REPLY"
2023-09-11 13:59:11,376 DEBUG logging:102 RECV: 0x1 0x5 0x7 0xd0 0xff 0x0 0x8c 0xb7
2023-09-11 13:59:11,376 DEBUG logging:102 Processing: 0x1 0x5 0x7 0xd0 0xff 0x0 0x8c 0xb7
2023-09-11 13:59:11,376 DEBUG logging:102 Getting Frame - 0x5 0x7 0xd0 0xff 0x0
2023-09-11 13:59:11,376 DEBUG logging:102 Factory Response[WriteSingleCoilResponse': 5]
2023-09-11 13:59:11,377 DEBUG logging:102 Frame advanced, resetting header!!
2023-09-11 13:59:11,377 DEBUG logging:102 Adding transaction 1
2023-09-11 13:59:11,377 DEBUG logging:102 Getting transaction 1
2023-09-11 13:59:11,377 DEBUG logging:102 Changing transaction state from "PROCESSING REPLY" to "TRANSACTION_COMPLETE"
2023-09-11 13:59:13,378 DEBUG logging:102 Current transaction state - TRANSACTION_COMPLETE
2023-09-11 13:59:13,378 DEBUG logging:102 Running transaction 2
2023-09-11 13:59:13,378 DEBUG logging:102 SEND: 0x1 0x3 0x3 0xea 0x0 0x1 0xa5 0xba
2023-09-11 13:59:13,378 DEBUG logging:102 Changing state to IDLE - Last Frame End - 1694433551.376211 Current Time stamp - 1694433553.3784
2023-09-11 13:59:13,378 DEBUG logging:102 New Transaction state "SENDING"
2023-09-11 13:59:13,378 DEBUG logging:102 Changing transaction state from "SENDING" to "WAITING FOR REPLY"
2023-09-11 13:59:13,420 DEBUG logging:102 Changing transaction state from "WAITING FOR REPLY" to "PROCESSING REPLY"
2023-09-11 13:59:13,420 DEBUG logging:102 RECV: 0x1 0x3 0x2 0x0 0x4 0xb9 0x87
2023-09-11 13:59:13,420 DEBUG logging:102 Processing: 0x1 0x3 0x2 0x0 0x4 0xb9 0x87
2023-09-11 13:59:13,420 DEBUG logging:102 Getting Frame - 0x3 0x2 0x0 0x4
2023-09-11 13:59:13,420 DEBUG logging:102 Factory Response[ReadHoldingRegistersResponse': 3]
2023-09-11 13:59:13,421 DEBUG logging:102 Frame advanced, resetting header!!
2023-09-11 13:59:13,421 DEBUG logging:102 Adding transaction 1
2023-09-11 13:59:13,421 DEBUG logging:102 Getting transaction 1
2023-09-11 13:59:13,421 DEBUG logging:102 Changing transaction state from "PROCESSING REPLY" to "TRANSACTION_COMPLETE"
2023-09-11 13:59:13,421 DEBUG logging:102 Current transaction state - TRANSACTION_COMPLETE
2023-09-11 13:59:13,421 DEBUG logging:102 Running transaction 3
2023-09-11 13:59:13,421 DEBUG logging:102 SEND: 0x0 0x10 0x4 0x12 0x0 0x2 0x4 0x0 0x0 0x0 0x1 0x84 0x86
2023-09-11 13:59:13,421 DEBUG logging:102 Changing state to IDLE - Last Frame End - 1694433553.420606 Current Time stamp - 1694433553.421639
2023-09-11 13:59:13,421 DEBUG logging:102 Waiting for 3.5 char before next send - 1.75 ms
2023-09-11 13:59:13,424 DEBUG logging:102 New Transaction state "SENDING"
2023-09-11 13:59:13,425 DEBUG logging:102 Changing transaction state from "SENDING" to "WAITING FOR REPLY"
2023-09-11 13:59:19,573 DEBUG logging:102 Transaction failed. (Modbus Error: [Invalid Message] No response received, expected at least 4 bytes (0 received)) 
2023-09-11 13:59:19,573 DEBUG logging:102 Processing: 
2023-09-11 13:59:19,573 DEBUG logging:102 Getting transaction 0
2023-09-11 13:59:19,573 DEBUG logging:102 Changing transaction state from "PROCESSING REPLY" to "TRANSACTION_COMPLETE"
2023-09-11 13:59:21,609 DEBUG logging:102 Current transaction state - TRANSACTION_COMPLETE
2023-09-11 13:59:21,610 DEBUG logging:102 Running transaction 4
2023-09-11 13:59:21,610 DEBUG logging:102 SEND: 0x1 0x3 0x3 0xea 0x0 0x1 0xa5 0xba
2023-09-11 13:59:21,610 DEBUG logging:102 Changing state to IDLE - Last Frame End - None Current Time stamp - 1694433561.610234
2023-09-11 13:59:21,612 DEBUG logging:102 New Transaction state "SENDING"
2023-09-11 13:59:21,612 DEBUG logging:102 Changing transaction state from "SENDING" to "WAITING FOR REPLY"
2023-09-11 13:59:21,653 DEBUG logging:102 Changing transaction state from "WAITING FOR REPLY" to "PROCESSING REPLY"
2023-09-11 13:59:21,653 DEBUG logging:102 RECV: 0x1 0x3 0x2 0x0 0xa 0x38 0x43
2023-09-11 13:59:21,653 DEBUG logging:102 Processing: 0x1 0x3 0x2 0x0 0xa 0x38 0x43
2023-09-11 13:59:21,653 DEBUG logging:102 Getting Frame - 0x3 0x2 0x0 0xa
2023-09-11 13:59:21,653 DEBUG logging:102 Factory Response[ReadHoldingRegistersResponse': 3]
2023-09-11 13:59:21,653 DEBUG logging:102 Frame advanced, resetting header!!
2023-09-11 13:59:21,654 DEBUG logging:102 Adding transaction 1
2023-09-11 13:59:21,654 DEBUG logging:102 Getting transaction 1
2023-09-11 13:59:21,654 DEBUG logging:102 Changing transaction state from "PROCESSING REPLY" to "TRANSACTION_COMPLETE"
2023-09-11 13:59:21,654 DEBUG logging:102 Current transaction state - TRANSACTION_COMPLETE
2023-09-11 13:59:21,654 DEBUG logging:102 Running transaction 5
2023-09-11 13:59:21,654 DEBUG logging:102 SEND: 0x1 0x3 0x3 0xea 0x0 0x1 0xa5 0xba
2023-09-11 13:59:21,654 DEBUG logging:102 Changing state to IDLE - Last Frame End - 1694433561.6537 Current Time stamp - 1694433561.654721
2023-09-11 13:59:21,654 DEBUG logging:102 Waiting for 3.5 char before next send - 1.75 ms
2023-09-11 13:59:21,657 DEBUG logging:102 New Transaction state "SENDING"
2023-09-11 13:59:21,657 DEBUG logging:102 Changing transaction state from "SENDING" to "WAITING FOR REPLY"
2023-09-11 13:59:21,699 DEBUG logging:102 Changing transaction state from "WAITING FOR REPLY" to "PROCESSING REPLY"
2023-09-11 13:59:21,699 DEBUG logging:102 RECV: 0x1 0x3 0x2 0x0 0xa 0x38 0x43
2023-09-11 13:59:21,699 DEBUG logging:102 Processing: 0x1 0x3 0x2 0x0 0xa 0x38 0x43
2023-09-11 13:59:21,699 DEBUG logging:102 Getting Frame - 0x3 0x2 0x0 0xa
2023-09-11 13:59:21,700 DEBUG logging:102 Factory Response[ReadHoldingRegistersResponse': 3]
2023-09-11 13:59:21,700 DEBUG logging:102 Frame advanced, resetting header!!
2023-09-11 13:59:21,700 DEBUG logging:102 Adding transaction 1
2023-09-11 13:59:21,700 DEBUG logging:102 Getting transaction 1
2023-09-11 13:59:21,700 DEBUG logging:102 Changing transaction state from "PROCESSING REPLY" to "TRANSACTION_COMPLETE"
2023-09-11 13:59:21,700 DEBUG logging:102 Current transaction state - TRANSACTION_COMPLETE
2023-09-11 13:59:21,700 DEBUG logging:102 Running transaction 6
2023-09-11 13:59:21,700 DEBUG logging:102 SEND: 0x0 0x10 0x4 0x12 0x0 0x2 0x4 0x0 0x0 0x0 0x0 0x45 0x46
2023-09-11 13:59:21,700 DEBUG logging:102 Changing state to IDLE - Last Frame End - 1694433561.699345 Current Time stamp - 1694433561.700142
2023-09-11 13:59:21,700 DEBUG logging:102 Waiting for 3.5 char before next send - 1.75 ms
2023-09-11 13:59:21,703 DEBUG logging:102 New Transaction state "SENDING"
2023-09-11 13:59:21,703 DEBUG logging:102 Changing transaction state from "SENDING" to "WAITING FOR REPLY"
2023-09-11 13:59:27,708 DEBUG logging:102 No response received, Expected 8 bytes Received 0 bytes !!!!
2023-09-11 13:59:27,709 DEBUG logging:102 Changing transaction state from "WAITING FOR REPLY" to "PROCESSING REPLY"
2023-09-11 13:59:27,709 DEBUG logging:102 RECV: 
2023-09-11 13:59:27,709 DEBUG logging:102 Processing: 
2023-09-11 13:59:27,709 DEBUG logging:102 Getting transaction 0
2023-09-11 13:59:27,832 DEBUG logging:102 Changing transaction state from "PROCESSING REPLY" to "TRANSACTION_COMPLETE"
2023-09-11 13:59:29,869 DEBUG logging:102 Current transaction state - TRANSACTION_COMPLETE
2023-09-11 13:59:29,870 DEBUG logging:102 Running transaction 7
2023-09-11 13:59:29,870 DEBUG logging:102 SEND: 0x1 0x3 0x3 0xea 0x0 0x1 0xa5 0xba
2023-09-11 13:59:29,870 DEBUG logging:102 Changing state to IDLE - Last Frame End - None Current Time stamp - 1694433569.870035
2023-09-11 13:59:29,872 DEBUG logging:102 New Transaction state "SENDING"
2023-09-11 13:59:29,872 DEBUG logging:102 Changing transaction state from "SENDING" to "WAITING FOR REPLY"
2023-09-11 13:59:29,913 DEBUG logging:102 Changing transaction state from "WAITING FOR REPLY" to "PROCESSING REPLY"
2023-09-11 13:59:29,913 DEBUG logging:102 RECV: 0x1 0x3 0x2 0x0 0x4 0xb9 0x87
2023-09-11 13:59:29,913 DEBUG logging:102 Processing: 0x1 0x3 0x2 0x0 0x4 0xb9 0x87
2023-09-11 13:59:29,914 DEBUG logging:102 Getting Frame - 0x3 0x2 0x0 0x4
2023-09-11 13:59:29,914 DEBUG logging:102 Factory Response[ReadHoldingRegistersResponse': 3]
2023-09-11 13:59:29,914 DEBUG logging:102 Frame advanced, resetting header!!
